(2.592360) can0 312#0829082A1FFF1FFF
(2.592613) can0 215#0000000000000000
(2.603095) can0 325#0100
(2.603256) can0 212#00FF000026A4282C
(2.603509) can0 308#0003134000000003
(2.603772) can0 218#8823DD4300840D00
(2.614281) can0 418#00000000000000
(2.614547) can0 325#0100
(2.614675) can0 424#03000C005CB201FF
(2.614937) can0 212#00FF000026A4282C
(2.625380) can0 308#0003134000000003
(2.625665) can0 218#082DDD4300840D00
(2.625927) can0 418#00000000000000
(2.636396) can0 317#000010030100FF00
(2.636681) can0 445#32005282001200
(2.636922) can0 212#00FF000026A5282F
(2.647368) can0 308#0003114000000003
(2.647653) can0 218#882DDD4300040D00
(2.647915) can0 312#083108311FFF1FFF
(2.648172) can0 215#0000000000000000
(2.658626) can0 325#0100
(2.658795) can0 212#00FF000026A4282C
(2.659048) can0 308#0003144000000003
(2.669482) can0 415#00FF0000FF00FF
(2.669747) can0 218#082DDD4300840D00
(2.670008) can0 312#082C082C1FFF1FFF
(2.670266) can0 215#0000000000000000
(2.680769) can0 325#0100
(2.680930) can0 212#00FF000026A4282C
(2.681185) can0 101#84
(2.681293) can0 308#0003144000000003
(2.691793) can0 218#882DDD4300040D00
(2.692079) can0 312#082C082C1FFF1FFF
(2.692332) can0 215#0000000000000000
(2.702820) can0 325#0100
(2.702981) can0 424#03000C005CB201FF
(2.703236) can0 212#00FF000026A22827
(2.703490) can0 308#0003184000000003
(2.713936) can0 218#082DDD4300840D00
(2.714248) can0 325#0100
(2.714409) can0 212#00FF000026A22827
(2.714662) can0 308#0003184000000003
(2.725124) can0 218#8823DD4300840D00
(2.725409) can0 418#00000000000000
(2.725642) can0 317#000010030000FF00
(2.736151) can0 447#800005
(2.736332) can0 312#082708261FFF1FFF
(2.736585) can0 212#00FF000026A12824
(2.736847) can0 308#00031A4000000003
(2.747341) can0 218#0823DD4300040D00
(2.747626) can0 445#32005282001200
(2.747866) can0 312#082408241FFF1FFF
(2.758342) can0 215#0000000000000000
(2.758628) can0 325#0100
(2.758757) can0 415#00FF0000FF00FF
(2.758998) can0 608#5900FFBFFF014900
(2.769475) can0 212#00FF000026A12824
(2.769768) can0 312#082408231FFF1FFF
(2.770021) can0 215#0000000000000000
(2.780457) can0 325#0100
(2.780618) can0 424#03000C005CB201FF
(2.780880) can0 212#00FF000026A32828
(2.781138) can0 101#84
(2.791464) can0 308#0003164000000003
(2.791750) can0 312#082908291FFF1FFF
(2.792008) can0 215#0000000000000000
(2.792267) can0 325#0100
(2.802597) can0 212#00FF000026A32828
(2.802891) can0 308#0003164000000003
(2.803149) can0 218#8823DD4300840D00
(2.813595) can0 418#00000000000000
(2.813892) can0 317#000010030400FF00
(2.814204) can0 325#0100
(2.814364) can0 424#03000C005CB201FF
(2.824864) can0 212#00FF000026A4282B
(2.825151) can0 308#0003144000000003
(2.825405) can0 218#0823DD4300040D00
(2.835858) can0 418#00000000000000
(2.836125) can0 317#000010030400FF00
(2.836403) can0 212#00FF000026A4282B
(2.836688) can0 308#0003144000000003
(2.847170) can0 218#8823DD4300840D00
(2.847455) can0 447#800005
(2.847628) can0 312#082D082E1FFF1FFF
(2.858135) can0 215#0000000000000000
(2.858445) can0 325#0100
(2.858606) can0 415#00FF0000FF00FF
(2.858847) can0 608#5900FFBFFF011900
(2.869344) can0 212#00FF000026A52830
(2.869629) can0 445#32005282001200
(2.869870) can0 312#083208321FFF1FFF
(2.870126) can0 215#0000000000000000
(2.880586) can0 325#0100
(2.880747) can0 212#00FF000026A52830
(2.881008) can0 101#84
(2.881121) can0 308#0003114000000003
(2.891610) can0 218#882DDD4300040D00
(2.891904) can0 312#083208331FFF1FFF
(2.892162) can0 215#0000000000000000
(2.902634) can0 325#0100
(2.902802) can0 424#03000C005CB201FF
(2.903056) can0 212#00FF000026A52830
(2.903311) can0 308#0003114000000003
(2.913745) can0 218#082DDD4300840D00
(2.914058) can0 325#0100
(2.914227) can0 212#00FF000026A52830
(2.924663) can0 308#0003114000000003
(2.924957) can0 218#882DDD4300040D00
(2.925214) can0 418#00000000000000
(2.925448) can0 317#00001002FF00FF00
(2.935888) can0 447#800005
(2.936070) can0 212#00FF000026A4282E
(2.936323) can0 308#0003134000000003
(2.946786) can0 218#082DDD4300840D00
(2.947072) can0 418#00000000000000
(2.947305) can0 445#32005282001200
(2.947538) can0 312#082F082E1FFF1FFF
(2.958014) can0 215#0000000000000000
(2.958305) can0 212#00FF000026A4282E
(2.958559) can0 308#0003134000000003
(2.968997) can0 218#882DDD4300040D00
(2.969287) can0 418#00000000000000
(2.969520) can0 312#082F082E1FFF1FFF
(2.969782) can0 215#0000000000000000
(2.980242) can0 325#0100
(2.980403) can0 212#00FF000026A22829
(2.980656) can0 101#84
(2.980772) can0 308#0003174000000003
(2.991266) can0 218#082DDD4300840D00
(2.991551) can0 312#082908281FFF1FFF
(2.991812) can0 215#0000000000000000
(3.002295) can0 325#0100
(3.002478) can0 212#00FF000026A22829
(3.002770) can0 308#0003174000000003
(3.003023) can0 218#8823DD4300840D00
(3.013483) can0 418#00000000000000
(3.013748) can0 215#0000000000000000
(3.014032) can0 325#0100
(3.024447) can0 424#03000C005CB201FF
(3.024732) can0 212#00FF000026A12825
(3.024993) can0 308#00031A4000000003
(3.025253) can0 218#0823DD4300040D00
(3.035705) can0 418#00000000000000
(3.035978) can0 212#00FF000026A12825
(3.036234) can0 308#0003194000000003
(3.046666) can0 218#8823DD4300840D00
(3.046959) can0 418#00000000000000
(3.047194) can0 447#800005
(3.047343) can0 415#00FF0000FF00FF
(3.057827) can0 608#5900FFBFFF011C00
(3.058117) can0 212#00FF000026A12825
(3.058370) can0 308#0003194000000003
(3.068855) can0 218#0823DD4300040D00
(3.069142) can0 418#00000000000000
(3.069376) can0 445#32005282001200
(3.069608) can0 312#082508251FFF1FFF
(3.080062) can0 215#0000000000000000
(3.080348) can0 212#00FF000026A32828
(3.080600) can0 101#84
(3.090919) can0 308#0003164000000003
(3.091206) can0 218#8823DD4300840D00
(3.091459) can0 312#082908291FFF1FFF
(3.091712) can0 215#0000000000000000
(3.102216) can0 325#0100
(3.102377) can0 212#00FF000026A32828
(3.102630) can0 308#0003164000000003
(3.113126) can0 218#0823DD4300040D00
(3.113412) can0 418#00000000000000
(3.113645) can0 325#0100
(3.113853) can0 212#00FF000026A12825
(3.124335) can0 308#0003184000000003
(3.124620) can0 218#8823DD4300840D00
(3.124882) can0 418#00000000000000
(3.125122) can0 317#000010030400FF00
(3.135625) can0 447#800005
(3.135821) can0 212#00FF000026A12825
(3.136075) can0 308#0003184000000003
(3.146537) can0 218#0823DD4300040D00
(3.146830) can0 415#00FF0000FF00FF
(3.147063) can0 317#000010030400FF00
(3.147320) can0 445#32005282001200
(3.157732) can0 312#082508251FFF1FFF
(3.158022) can0 212#00FF000026A12824
(3.158278) can0 308#0003194000000003
(3.168734) can0 218#8823DD4300840D00
(3.169026) can0 418#00000000000000
(3.169264) can0 312#082408241FFF1FFF
(3.169517) can0 215#0000000000000000
(3.179983) can0 325#0100
(3.180149) can0 212#00FF000026A12824
(3.180402) can0 101#84
(3.180510) can0 308#0003194000000003
(3.191000) can0 218#0823DD4300040D00
(3.191287) can0 312#082408241FFF1FFF
(3.191541) can0 215#0000000000000000
(3.202023) can0 325#0100
(3.202190) can0 212#00FF000026A12823
(3.202443) can0 308#00031A4000000003
(3.202697) can0 218#8823DD4300840D00
(3.213138) can0 418#00000000000000
(3.213403) can0 215#0000000000000000
(3.213658) can0 325#0100
(3.224032) can0 424#03000C005CB201FF
(3.224318) can0 212#00FF000026A12823
(3.224571) can0 308#00031A4000000003
(3.224833) can0 218#0823DD4300040D00
(3.235274) can0 418#00000000000000
(3.235539) can0 415#00FF0000FF00FF
(3.235777) can0 608#5900FFBFFF011400
(3.246255) can0 212#00FF000026A32828
(3.246540) can0 308#0003154000000003
(3.246802) can0 447#800005
(3.246951) can0 312#082A082A1FFF1FFF
(3.257404) can0 215#0000000000000000
(3.257690) can0 212#00FF000026A32828
(3.257951) can0 308#0003154000000003
(3.268386) can0 218#0823DD4300040D00
(3.268672) can0 418#00000000000000
(3.268913) can0 445#32005282001200
(3.269151) can0 312#082A082B1FFF1FFF
(3.279626) can0 215#0000000000000000
(3.279920) can0 212#00FF000026A22826
(3.280180) can0 101#84
(3.290504) can0 308#0003174000000003
(3.290798) can0 218#8823DD4300840D00
(3.291051) can0 312#082608261FFF1FFF
(3.291307) can0 215#0000000000000000
(3.301771) can0 325#0100
(3.301938) can0 212#00FF000026A22826
(3.302221) can0 308#0003174000000003
(3.312726) can0 218#0823DD4300040D00
(3.313016) can0 418#00000000000000
(3.313256) can0 312#082608261FFF1FFF
(3.313509) can0 215#0000000000000000
(3.323985) can0 325#0100
(3.324151) can0 212#00FF000026A22825
(3.324405) can0 308#0003184000000003
(3.334848) can0 218#8823DD4300840D00
(3.335139) can0 418#00000000000000
(3.335372) can0 415#00FF0000FF00FF
(3.335605) can0 608#5900FFBFFF014100
(3.346031) can0 212#00FF000026A22825
(3.346316) can0 445#32005282001200
(3.346549) can0 312#082508251FFF1FFF
(3.357017) can0 215#0000000000000000
(3.357308) can0 325#0100
(3.357437) can0 212#00FF000026A12823
(3.357690) can0 308#0003194000000003
(3.368172) can0 218#8823DD4300840D00
(3.368457) can0 312#082308221FFF1FFF
(3.368710) can0 215#0000000000000000
(3.379154) can0 325#0100
(3.379315) can0 424#03000C005CB201FF
(3.379569) can0 212#00FF000026A12823
(3.379830) can0 101#84
(3.390162) can0 308#0003194000000003
(3.390447) can0 312#082508261FFF1FFF
(3.390701) can0 215#0000000000000000
(3.390963) can0 325#0100
(3.401289) can0 212#00FF000026A22825
(3.401573) can0 308#0003174000000003
(3.401859) can0 218#8823DD4300840D00
(3.412357) can0 418#00000000000000
(3.412622) can0 317#000010030500FF00
(3.412884) can0 312#082508261FFF1FFF
(3.413141) can0 215#0000000000000000
(3.423643) can0 325#0100
(3.423811) can0 212#00FF000026A12822
(3.424065) can0 308#0003194000000003
(3.424320) can0 218#0823DD4300040D00
(3.434747) can0 418#00000000000000
(3.435026) can0 212#00FF000026A12822
(3.435284) can0 308#0003194000000003
(3.445777) can0 218#881ADD4300840D00
(3.446062) can0 418#00000000000000
(3.446299) can0 317#000010030500FF00
(3.456755) can0 447#800005
(3.456944) can0 312#082208211FFF1FFF
(3.457203) can0 212#00FF000026A12822
(3.457457) can0 308#0003194000000003
(3.467913) can0 218#081ADD4300040D00
(3.468204) can0 445#32005282001200
(3.468437) can0 312#082208221FFF1FFF
(3.478870) can0 215#0000000000000000
(3.479162) can0 325#0100
(3.479291) can0 212#00FF000026A12822
(3.479544) can0 101#84
(3.489894) can0 218#881ADD4300840D00
(3.490183) can0 312#082208221FFF1FFF
(3.490436) can0 215#0000000000000000
(3.490690) can0 325#0100
(3.501027) can0 424#03000C005CB201FF
(3.501313) can0 212#00FF000026A12823
(3.501566) can0 218#081ADD4300040D00
(3.512097) can0 308#0003184000000003
(3.512383) can0 418#00000000000000
(3.512616) can0 312#082308231FFF1FFF
(3.512877) can0 215#0000000000000000
(3.523382) can0 325#0100
(3.523542) can0 212#00FF000026A12823
(3.523828) can0 218#8823DD4300840D00
(3.524117) can0 308#0003184000000003
(3.534580) can0 418#00000000000000
(3.534875) can0 424#03000C005CB201FF
(3.535163) can0 212#00FF000026A42828
(3.545595) can0 218#0823DD4300040D00
(3.545889) can0 308#0003144000000003
(3.546149) can0 317#000010030400FF00
(3.556588) can0 445#32005282001200
(3.556860) can0 312#082A082A1FFF1FFF
(3.557117) can0 212#00FF000026A42828
(3.557371) can0 218#8823DD4300840D00
(3.567826) can0 308#0003144000000003
(3.568117) can0 312#082A082B1FFF1FFF
(3.568370) can0 215#0000000000000000
(3.578808) can0 325#0100
(3.578969) can0 424#03000C005CB201FF
(3.579225) can0 212#00FF000026A32827
(3.579478) can0 101#84
(3.589815) can0 218#0823DD4300040D00
(3.590105) can0 312#082808281FFF1FFF
(3.590358) can0 215#0000000000000000
(3.600794) can0 325#0100
(3.600954) can0 212#00FF000026A32827
(3.601213) can0 218#8823DD4300840D00
(3.601467) can0 308#0003154000000003
(3.611938) can0 418#00000000000000
(3.612206) can0 312#082808281FFF1FFF
(3.612459) can0 215#0000000000000000
(3.612714) can0 325#0100
(3.623075) can0 424#03000C005CB201FF
(3.623384) can0 212#00FF000026A22825
(3.623669) can0 218#0823DD4300040D00
(3.634124) can0 308#0003174000000003
(3.634433) can0 418#00000000000000
(3.634728) can0 325#0100
(3.634897) can0 218#8823DD4300840D00
(3.645333) can0 212#00FF000026A22825
(3.645618) can0 308#0003174000000003
(3.645880) can0 418#00000000000000
(3.656365) can0 447#800005
(3.656546) can0 312#082608251FFF1FFF
(3.656807) can0 218#0823DD4300040D00
(3.657061) can0 212#00FF000026A12823
(3.667534) can0 308#0003194000000003
(3.667828) can0 445#32005282001200
(3.668061) can0 312#082308221FFF1FFF
(3.678570) can0 215#0000000000000000
(3.678863) can0 325#0100
(3.678992) can0 218#8823DD4300840D00
(3.679248) can0 212#00FF000026A12823
(3.689715) can0 101#84
(3.689862) can0 312#082308231FFF1FFF
(3.690121) can0 215#0000000000000000
(3.690376) can0 325#0100
(3.700677) can0 424#03000C005CB201FF
(3.700971) can0 218#0823DD4300040D00
(3.701227) can0 212#00FF000026A32827
(3.701481) can0 308#0003164000000003
(3.711923) can0 418#00000000000000
(3.712193) can0 312#082808291FFF1FFF
(3.712446) can0 215#0000000000000000
(3.722946) can0 325#0100
(3.723107) can0 415#00FF0000FF00FF
(3.723364) can0 218#8823DD4300840D00
(3.723673) can0 212#00FF000026A32827
(3.734153) can0 308#0003164000000003
(3.734463) can0 325#0100
(3.734632) can0 424#03000C005CB201FF
(3.745105) can0 218#0823DD4300040D00
(3.745391) can0 212#00FF000026A22826
(3.745644) can0 418#00000000000000
(3.745886) can0 317#000010030300FF00
(3.756358) can0 445#32005282001200
(3.756645) can0 218#8823DD4300840D00
(3.756939) can0 418#00000000000000
(3.767364) can0 317#000010030300FF00
(3.767650) can0 212#00FF000026A22824
(3.767911) can0 447#800005
(3.768060) can0 312#082408241FFF1FFF
(3.778492) can0 215#0000000000000000
(3.778810) can0 218#0823DD4300040D00
(3.779097) can0 418#00000000000000
(3.789565) can0 212#00FF000026A22824
(3.789858) can0 101#84
(3.789966) can0 445#32005282001200
(3.790204) can0 312#082408241FFF1FFF
(3.800672) can0 215#0000000000000000
(3.800966) can0 218#8823DD4300840D00
(3.801225) can0 418#00000000000000
(3.801458) can0 212#00FF000026A12822
(3.811921) can0 308#0003194000000003
(3.812212) can0 312#082208221FFF1FFF
(3.812465) can0 215#0000000000000000
(3.822945) can0 325#0100
(3.823107) can0 424#03000C005CB201FF
(3.823385) can0 218#081ADD4300040D00
(3.823670) can0 418#00000000000000
(3.834125) can0 212#00FF000026A12822
(3.834434) can0 325#0100
(3.834594) can0 218#881ADD4300840D00
(3.845033) can0 418#00000000000000
(3.845299) can0 212#00FF000026A32827
(3.845552) can0 317#000010030300FF00
(3.845814) can0 447#800005
(3.856170) can0 312#082908291FFF1FFF
(3.856454) can0 218#0823DD4300040D00
(3.856708) can0 418#00000000000000
(3.867151) can0 212#00FF000026A32827
(3.867436) can0 308#0003154000000003
(3.867690) can0 445#32005282001200
(3.867931) can0 312#0829082A1FFF1FFF
(3.878404) can0 215#0000000000000000
(3.878690) can0 218#8823DD4300840D00
(3.878952) can0 418#00000000000000
(3.889432) can0 317#000010030300FF00
(3.889718) can0 212#00FF000026A22824
(3.889980) can0 312#082408241FFF1FFF
(3.890235) can0 215#0000000000000000
(3.900715) can0 325#0100
(3.900884) can0 218#0823DD4300040D00
(3.901141) can0 418#00000000000000
(3.911612) can0 317#000010030400FF00
(3.911906) can0 212#00FF000026A22824
(3.912162) can0 312#082408231FFF1FFF
(3.912415) can0 215#0000000000000000
(3.922858) can0 415#00FF0000FF00FF
(3.923146) can0 218#8823DD4300840D00
(3.923455) can0 418#00000000000000
(3.933912) can0 317#000010030300FF00
(3.934227) can0 212#00FF000026A12823
(3.934512) can0 325#0100
(3.934641) can0 424#03000C005CB201FF
(3.945071) can0 218#0823DD4300040D00
(3.945356) can0 308#0003184000000003
(3.945611) can0 445#32005282001200
(3.956077) can0 312#082308221FFF1FFF
(3.956362) can0 215#0000000000000000
(3.956641) can0 218#8823DD4300840D00
(3.956934) can0 418#00000000000000
(3.967360) can0 317#000010030400FF00
(3.967646) can0 447#800005
(3.967803) can0 312#082408241FFF1FFF
(3.978278) can0 215#0000000000000000
(3.978564) can0 325#0100
(3.978717) can0 218#0823DD4300040D00
(3.979011) can0 418#00000000000000
(3.989494) can0 317#000010030400FF00
(3.989788) can0 445#32005282001200
(3.990021) can0 312#082408241FFF1FFF
(3.990276) can0 215#0000000000000000
(4.000714) can0 325#0100
(4.000881) can0 218#8823DD4300840D00
(4.001139) can0 418#00000000000000
(4.011566) can0 317#000010030400FF00
(4.011860) can0 212#00FF000026A42829
(4.012117) can0 312#082B082D1FFF1FFF
(4.012370) can0 215#0000000000000000
(4.022857) can0 325#0100
(4.023017) can0 218#0823DD4300040D00
(4.023327) can0 418#00000000000000
(4.033754) can0 317#000010030300FF00
(4.034068) can0 212#00FF000026A42829
(4.034352) can0 325#0100
(4.034481) can0 218#8823DD4300840D00
(4.044983) can0 418#00000000000000
(4.045254) can0 308#0003154000000003
(4.045508) can0 447#800005
(4.045657) can0 312#082708271FFF1FFF
(4.056095) can0 215#0000000000000000
(4.056381) can0 218#0823DD4300040D00
(4.056634) can0 418#00000000000000
(4.067100) can0 317#000010030300FF00
(4.067385) can0 212#00FF000026A32827
(4.067638) can0 445#32005282001200
(4.067878) can0 312#082708271FFF1FFF
(4.078322) can0 215#0000000000000000
(4.078608) can0 218#8823DD4300840D00
(4.078869) can0 418#00000000000000
(4.089320) can0 317#000010030200FF00
(4.089605) can0 212#00FF000026A22824
(4.089866) can0 312#08325#0100
(1779478863.011333) can0 218#8823DD4300000
(4.100632) can0 325#0100
(4.100768) can0 218#0823DD4300040D00
(4.101022) can0 418#00000000000000
(1779478863.000013) can0 317#000010030200FF00
(1779478863.000339) can0 312#082408241FFF1FFF
(1779478863.000599) can0 215#0000000000000000
(1779478863.011135) can0 325#0100
(1779478863.011333) can0 218#8823DD4300840D00
(1779478863.011626) can0 418#00000000000000
(1779478863.022127) can0 317#000010030300FF00
(1779478863.022446) can0 212#00FF000026A12822
(1779478863.022739) can0 424#03000C005CB201FF
(1779478863.033249) can0 218#081ADD4300040D00
(1779478863.033543) can0 418#00000000000000
(1779478863.043971) can0 308#0003154000000003
(1779478863.044269) can0 445#32005282001200
(1779478863.044510) can0 312#082908291FFF1FFF
(1779478863.054954) can0 218#8823DD4300840D00
(1779478863.055250) can0 418#00000000000000
(1779478863.055493) can0 447#800005
(1779478863.065875) can0 312#0829082A1FFF1FFF
(1779478863.066175) can0 215#0000000000000000
(1779478863.066438) can0 218#0823DD4300040D00
(1779478863.076918) can0 418#00000000000000
(1779478863.077196) can0 317#000010030200FF00
(1779478863.087678) can0 445#32005282001200
(1779478863.087960) can0 312#082708271FFF1FFF
(1779478863.088227) can0 215#0000000000000000
(1779478863.098675) can0 415#00FF0000FF00FF
(1779478863.098957) can0 608#5900FFBFFF014100
(1779478863.099224) can0 312#082708261FFF1FFF
(1779478863.109728) can0 215#0000000000000000
(1779478863.110055) can0 325#0100
(1779478863.110225) can0 218#0823DD4300040D00
(1779478863.120666) can0 418#00000000000000
(1779478863.120973) can0 317#000010030200FF00
(1779478863.121294) can0 215#0000000000000000
(1779478863.131776) can0 325#0100
(1779478863.131946) can0 218#8823DD4300840D00
(1779478863.142435) can0 418#00000000000000
(1779478863.142709) can0 317#000010030200FF00
(1779478863.142981) can0 212#00FF000026A22825
(1779478863.153427) can0 218#0823DD4300040D00
(1779478863.153722) can0 418#00000000000000
(1779478863.153973) can0 445#32005282001200
(1779478863.164386) can0 312#082408241FFF1FFF
(1779478863.164704) can0 215#0000000000000000
(1779478863.165008) can0 218#8823DD4300840D00
(1779478863.175527) can0 418#00000000000000
(1779478863.175818) can0 317#000010030300FF00
(1779478863.186309) can0 447#800005
(1779478863.186500) can0 312#082408231FFF1FFF
(1779478863.186792) can0 215#0000000000000000
(1779478863.197289) can0 608#5900FFBFFF014200
(1779478863.197583) can0 218#0823DD4300040D00
(1779478863.197854) can0 445#32005282001200
(1779478863.208309) can0 312#082908291FFF1FFF
(1779478863.208603) can0 215#0000000000000000
(1779478863.208876) can0 218#8823DD4300840D00
(1779478863.219355) can0 418#00000000000000
(1779478863.219630) can0 317#000010030200FF00
(1779478863.230135) can0 312#0829082A1FFF1FFF
(1779478863.230429) can0 215#0000000000000000
(1779478863.230693) can0 325#0100
(1779478863.241017) can0 218#0823DD4300040D00
(1779478863.241313) can0 418#00000000000000
(1779478863.241556) can0 325#0100
(1779478863.251868) can0 218#8823DD4300840D00
(1779478863.252165) can0 418#00000000000000
(1779478863.252408) can0 212#00FF000026A22825
(1779478863.262851) can0 308#0003164000000003
(1779478863.263152) can0 447#800005
(1779478863.263311) can0 218#0823DD4300040D00
(1779478863.273789) can0 418#00000000000000
(1779478863.274064) can0 317#000010030200FF00
(1779478863.274328) can0 445#32005282001200
(1779478863.284801) can0 312#082308231FFF1FFF
(1779478863.285095) can0 215#0000000000000000
(1779478863.295531) can0 218#8823DD4300840D00
(1779478863.295833) can0 418#00000000000000
(1779478863.296076) can0 317#000010030200FF00
(1779478863.306506) can0 312#082308231FFF1FFF
(1779478863.306833) can0 215#0000000000000000
(1779478863.307135) can0 218#0823DD4300040D00
(1779478863.317618) can0 418#00000000000000
(1779478863.317901) can0 317#000010030200FF00
(1779478863.318167) can0 445#32005282001200
(1779478863.328622) can0 312#082308231FFF1FFF
(1779478863.328924) can0 215#0000000000000000
(1779478863.339430) can0 218#8823DD4300840D00
(1779478863.339724) can0 418#00000000000000
(1779478863.339975) can0 317#000010030300FF00
(1779478863.350430) can0 312#082308241FFF1FFF
(1779478863.350724) can0 215#0000000000000000
(1779478863.351048) can0 218#0823DD4300040D00
(1779478863.361542) can0 418#00000000000000
(1779478863.361856) can0 317#000010030300FF00
(1779478863.372398) can0 325#0100
(1779478863.372567) can0 218#8823DD4300840D00
(1779478863.372838) can0 418#00000000000000
(1779478863.383269) can0 212#00FF000026A42829
(1779478863.383563) can0 308#0003134000000003
(1779478863.383835) can0 218#0823DD4300040D00
(1779478863.394269) can0 418#00000000000000
(1779478863.394544) can0 317#000010030200FF00
(1779478863.394815) can0 445#32005282001200
(1779478863.405272) can0 312#082B082B1FFF1FFF
(1779478863.405566) can0 215#0000000000000000
(1779478863.405838) can0 218#8823DD4300840D00
(1779478863.416318) can0 418#00000000000000
(1779478863.416593) can0 317#000010030100FF00
(1779478863.427104) can0 312#082708271FFF1FFF
(1779478863.427398) can0 215#0000000000000000
(1779478863.427662) can0 325#0100
(1779478863.437978) can0 218#0823DD4300040D00
(1779478863.438277) can0 418#00000000000000
(1779478863.438520) can0 312#082708271FFF1FFF
(1779478863.448961) can0 215#0000000000000000
(1779478863.449259) can0 325#0100
(1779478863.449397) can0 218#8823DD4300840D00
(1779478863.459899) can0 418#00000000000000
(1779478863.460209) can0 317#000010030000FF00
(1779478863.460528) can0 312#082808281FFF1FFF
(1779478863.471002) can0 215#0000000000000000
(1779478863.471301) can0 325#0100
(1779478863.481675) can0 218#0823DD4300040D00
(1779478863.482002) can0 317#000010030100FF00
(1779478863.482300) can0 212#00FF000026A32828
(1779478863.492747) can0 218#8823DD4300840D00
(1779478863.493047) can0 418#00000000000000
(1779478863.493292) can0 308#0003134000000003
(1779478863.503727) can0 447#800005
(1779478863.503926) can0 312#082D082D1FFF1FFF
(1779478863.504193) can0 218#0823DD4300040D00
(1779478863.514665) can0 418#00000000000000
(1779478863.514948) can0 317#000010030000FF00
(1779478863.515217) can0 445#32005282001200
(1779478863.525669) can0 312#082D082D1FFF1FFF
(1779478863.525971) can0 215#0000000000000000
(1779478863.536476) can0 218#8823DD4300840D00
(1779478863.536776) can0 418#00000000000000
(1779478863.537019) can0 317#000010030000FF00
(1779478863.547477) can0 312#082B082B1FFF1FFF
(1779478863.547776) can0 215#0000000000000000
(1779478863.548040) can0 218#0823DD4300040D00
(1779478863.558502) can0 418#00000000000000
(1779478863.558809) can0 317#000010030000FF00
(1779478863.569292) can0 312#082B082B1FFF1FFF
(1779478863.569586) can0 215#0000000000000000
(1779478863.569882) can0 325#0100
(1779478863.580258) can0 415#00FF0000FF00FF
(1779478863.580532) can0 608#5900FFBFFF011700
(1779478863.580802) can0 312#082B082B1FFF1FFF
(1779478863.591315) can0 215#0000000000000000
(1779478863.591610) can0 325#0100
(1779478863.591748) can0 212#00FF000026A4282B
(1779478863.602255) can0 308#0003144000000003
(1779478863.602551) can0 445#32005282001200
(1779478863.602801) can0 218#8823DD4300840D00
(1779478863.613279) can0 418#00000000000000
(1779478863.613553) can0 317#00001002FF00FF00
(1779478863.624044) can0 447#800005
(1779478863.624235) can0 312#082E082E1FFF1FFF
(1779478863.624498) can0 215#0000000000000000
(1779478863.634958) can0 218#082DDD4300840D00
(1779478863.635258) can0 418#00000000000000
(1779478863.635501) can0 445#32005282001200
(1779478863.645978) can0 312#082E082F1FFF1FFF
(1779478863.646276) can0 215#0000000000000000
(1779478863.646540) can0 218#882DDD4300040D00
(1779478863.657024) can0 418#00000000000000
(1779478863.657299) can0 317#00001002FF00FF00
(1779478863.657562) can0 312#083008301FFF1FFF
(1779478863.668049) can0 215#0000000000000000
(1779478863.668345) can0 325#0100
(1779478863.678731) can0 218#082DDD4300840D00
(1779478863.679034) can0 418#00000000000000
(1779478863.679280) can0 317#00001002FF00FF00
(1779478863.689736) can0 312#0830082F1FFF1FFF
(1779478863.690058) can0 215#0000000000000000
(1779478863.690354) can0 218#882DDD4300040D00
(1779478863.700868) can0 418#00000000000000
(1779478863.701145) can0 317#00001002FE00FF00
(1779478863.701409) can0 215#0000000000000000
(1779478863.711895) can0 325#0100
(1779478863.712065) can0 424#03000C005CB201FF
(1779478863.712328) can0 212#00FF000026A3282A
(1779478863.722831) can0 308#0003154000000003
(1779478863.723128) can0 445#32005282001200
(1779478863.733588) can0 218#8823DD4300840D00
(1779478863.733890) can0 418#00000000000000
(1779478863.734138) can0 317#000010030000FF00
(1779478863.744610) can0 447#800005
(1779478863.744809) can0 312#082908281FFF1FFF
(1779478863.745072) can0 218#0823DD4300040D00
(1779478863.755548) can0 418#00000000000000
(1779478863.755831) can0 317#000010030000FF00
(1779478863.756094) can0 445#32005282001200
(1779478863.766552) can0 312#082908291FFF1FFF
(1779478863.766854) can0 215#0000000000000000
(1779478863.777317) can0 218#8823DD4300840D00
(1779478863.777612) can0 418#00000000000000
(1779478863.777863) can0 317#000010030100FF00
(1779478863.788359) can0 312#082808281FFF1FFF
(1779478863.788654) can0 215#0000000000000000
(1779478863.788925) can0 218#0823DD4300040D00
(1779478863.799392) can0 418#00000000000000
(1779478863.799690) can0 317#000010030100FF00
(1779478863.810223) can0 312#082D082D1FFF1FFF
(1779478863.810541) can0 215#0000000000000000
(1779478863.810869) can0 325#0100
(1779478863.821265) can0 418#00000000000000
(1779478863.821539) can0 317#000010030100FF00
(1779478863.821835) can0 325#0100
(1779478863.832202) can0 424#03000C005CB201FF
(1779478863.832497) can0 218#082DDD4300840D00
(1779478863.832768) can0 212#00FF000026A4282B
(1779478863.843224) can0 308#0003144000000003
(1779478863.843519) can0 445#32005282001200
(1779478863.843768) can0 218#8823DD4300840D00
(1779478863.854248) can0 418#00000000000000
(1779478863.854523) can0 317#000010030100FF00
(1779478863.854794) can0 447#800005
(1779478863.865168) can0 415#00FF0000FF00FF
(1779478863.865442) can0 608#5900FFBFFF014900
(1779478863.875934) can0 218#0823DD4300040D00
(1779478863.876235) can0 418#00000000000000
(1779478863.876478) can0 317#000010030100FF00
(1779478863.886935) can0 445#32005282001200
(1779478863.887214) can0 312#082908291FFF1FFF
(1779478863.887477) can0 218#8823DD4300840D00
(1779478863.897993) can0 418#00000000000000
(1779478863.898270) can0 317#000010030100FF00
(1779478863.898534) can0 312#082908291FFF1FFF
(1779478863.909018) can0 215#0000000000000000
(1779478863.909314) can0 325#0100
(1779478863.909453) can0 218#0823DD4300040D00
(1779478863.919965) can0 418#00000000000000
(1779478863.920246) can0 317#000010030000FF00
(1779478863.930709) can0 312#082608251FFF1FFF
(1779478863.931011) can0 215#0000000000000000
(1779478863.931280) can0 325#0100
(1779478863.941626) can0 212#00FF000026A12826
(1779478863.941952) can0 308#0003184000000003
(1779478863.942250) can0 218#0823DD4300040D00
(1779478863.952776) can0 418#00000000000000
(1779478863.953050) can0 317#000010030200FF00
(1779478863.953316) can0 308#0003164000000003
(1779478863.963801) can0 415#00FF0000FF00FF
(1779478863.964075) can0 608#5900FFBFFF011800
(1779478863.974562) can0 218#8823DD4300840D00
(1779478863.974864) can0 418#00000000000000
(1779478863.975108) can0 317#000010030300FF00
(1779478863.985558) can0 447#800005
(1779478863.985749) can0 312#082808291FFF1FFF
(1779478863.986020) can0 218#0823DD4300040D00
(1779478863.996517) can0 418#00000000000000
(1779478863.996800) can0 317#000010030200FF00
(1779478863.997063) can0 445#32005282001200
(1779478864.007521) can0 312#082608261FFF1FFF
(1779478864.007822) can0 215#0000000000000000
(1779478864.018294) can0 218#8823DD4300840D00
(1779478864.018588) can0 418#00000000000000
(1779478864.018863) can0 317#000010030200FF00
(1779478864.029353) can0 312#082608261FFF1FFF
(1779478864.029670) can0 215#0000000000000000
(1779478864.029997) can0 218#0823DD4300040D00
(1779478864.040527) can0 418#00000000000000
(1779478864.040810) can0 317#000010030300FF00
(1779478864.041073) can0 312#082708271FFF1FFF
(1779478864.051552) can0 215#0000000000000000
(1779478864.051855) can0 325#0100
(1779478864.051993) can0 212#00FF000026A22827
(1779478864.062490) can0 308#0003174000000003
(1779478864.062792) can0 447#800005
(1779478864.073155) can0 218#0823DD4300040D00
(1779478864.073449) can0 418#00000000000000
(1779478864.073692) can0 317#000010030300FF00
(1779478864.084151) can0 445#32005282001200
(1779478864.084425) can0 312#082508251FFF1FFF
(1779478864.084687) can0 218#8823DD4300840D00
(1779478864.095129) can0 418#00000000000000
(1779478864.095404) can0 317#000010030300FF00
(1779478864.095667) can0 447#800005
(1779478864.106048) can0 312#082508251FFF1FFF
(1779478864.106343) can0 215#0000000000000000
(1779478864.106607) can0 218#0823DD4300040D00
(1779478864.117091) can0 418#00000000000000
(1779478864.117365) can0 317#000010030400FF00
(1779478864.127864) can0 445#32005282001200
(1779478864.128142) can0 312#082A082A1FFF1FFF
(1779478864.128404) can0 215#0000000000000000
(1779478864.138893) can0 218#8823DD4300840D00
(1779478864.139211) can0 418#00000000000000
(1779478864.139486) can0 312#082A08291FFF1FFF
(1779478864.149995) can0 215#0000000000000000
(1779478864.150317) can0 325#0100
(1779478864.150487) can0 317#000010030200FF00
(1779478864.160935) can0 212#00FF000026A22826
(1779478864.161235) can0 308#0003174000000003
(1779478864.171737) can0 325#0100
(1779478864.171914) can0 218#8823DD4300840D00
(1779478864.172183) can0 418#00000000000000
(1779478864.182609) can0 212#00FF000026A22826
(1779478864.182911) can0 101#84
(1779478864.183028) can0 218#0823DD4300040D00
(1779478864.193480) can0 418#00000000000000
(1779478864.193755) can0 317#000010030300FF00
(1779478864.194025) can0 445#32005282001200
(1779478864.204480) can0 312#082608261FFF1FFF
(1779478864.204780) can0 215#0000000000000000
(1779478864.205068) can0 218#8823DD4300840D00
(1779478864.215526) can0 418#00000000000000
(1779478864.215809) can0 317#000010030300FF00
(1779478864.226278) can0 447#800005
(1779478864.226469) can0 312#082608271FFF1FFF
(1779478864.226731) can0 215#0000000000000000
(1779478864.237190) can0 218#0823DD4300040D00
(1779478864.237485) can0 418#00000000000000
(1779478864.237728) can0 445#32005282001200
(1779478864.248235) can0 312#082608271FFF1FFF
(1779478864.248529) can0 215#0000000000000000
(1779478864.248801) can0 218#8823DD4300840D00
(1779478864.259279) can0 418#00000000000000
(1779478864.259553) can0 317#000010030200FF00
(1779478864.259824) can0 312#082A082B1FFF1FFF
(1779478864.270310) can0 215#0000000000000000
(1779478864.270605) can0 325#0100
(1779478864.280965) can0 212#00FF000026A32829
(1779478864.281265) can0 101#84
(1779478864.281382) can0 308#0003154000000003
(1779478864.291920) can0 218#8823DD4300840D00
(1779478864.292217) can0 418#00000000000000
(1779478864.292460) can0 212#00FF000026A22825
(1779478864.302924) can0 308#0003184000000003
(1779478864.303225) can0 447#800005
(1779478864.303384) can0 218#0823DD4300040D00
(1779478864.313883) can0 418#00000000000000
(1779478864.314162) can0 317#000010030200FF00
(1779478864.314425) can0 445#32005282001200
(1779478864.324886) can0 312#082508241FFF1FFF
(1779478864.325206) can0 215#0000000000000000
(1779478864.325502) can0 218#8823DD4300840D00
(1779478864.336011) can0 418#00000000000000
(1779478864.336290) can0 317#000010030200FF00
(1779478864.346785) can0 447#800005
(1779478864.346976) can0 415#00FF0000FF00FF
(1779478864.347248) can0 608#5900FFBFFF014300
(1779478864.357755) can0 218#0823DD4300040D00
(1779478864.358056) can0 418#00000000000000
(1779478864.358326) can0 445#32005282001200
(1779478864.368810) can0 312#082308231FFF1FFF
(1779478864.369108) can0 215#0000000000000000
(1779478864.369372) can0 218#8823DD4300840D00
(1779478864.379856) can0 418#00000000000000
(1779478864.380135) can0 317#000010030400FF00
(1779478864.390638) can0 312#082108211FFF1FFF
(1779478864.390940) can0 215#0000000000000000
(1779478864.391207) can0 325#0100
(1779478864.401604) can0 212#00FF000026A02821
(1779478864.401930) can0 308#00031A4000000003
(1779478864.402228) can0 218#881ADD4300840D00
(1779478864.412658) can0 418#00000000000000
(1779478864.412941) can0 317#000010030500FF00
(1779478864.413207) can0 308#0003174000000003
(1779478864.423684) can0 447#800005
(1779478864.423883) can0 312#082508261FFF1FFF
(1779478864.424147) can0 218#0823DD4300040D00
(1779478864.434622) can0 418#00000000000000
(1779478864.434904) can0 317#000010030500FF00
(1779478864.445345) can0 445#32005282001200
(1779478864.445619) can0 312#082508251FFF1FFF
(1779478864.445889) can0 215#0000000000000000
(1779478864.456324) can0 218#8823DD4300840D00
(1779478864.456619) can0 418#00000000000000
(1779478864.456869) can0 312#081F081E1FFF1FFF
(1779478864.467346) can0 215#0000000000000000
(1779478864.467641) can0 325#0100
(1779478864.467787) can0 218#081ADD4300040D00
(1779478864.478298) can0 418#00000000000000
(1779478864.478596) can0 317#000010030500FF00
(1779478864.489127) can0 312#081F081F1FFF1FFF
(1779478864.489421) can0 215#0000000000000000
(1779478864.489709) can0 325#0100
(1779478864.500077) can0 317#000010030600FF00
(1779478864.500372) can0 212#00FF000026A0281E
(1779478864.500635) can0 312#081E081F1FFF1FFF
(1779478864.511094) can0 215#0000000000000000
(1779478864.511390) can0 325#0100
(1779478864.511528) can0 212#00FF000026A0281E
(1779478864.522032) can0 308#00031B4000000003
(1779478864.522328) can0 445#32005282001200
(1779478864.522570) can0 218#881ADD4300840D00
(1779478864.533057) can0 418#00000000000000
(1779478864.533332) can0 317#000010030600FF00
(1779478864.543810) can0 447#800005
(1779478864.544000) can0 312#081E081E1FFF1FFF
(1779478864.544269) can0 215#0000000000000000
(1779478864.554719) can0 218#081ADD4300040D00
(1779478864.555019) can0 418#00000000000000
(1779478864.555266) can0 445#32005282001200
(1779478864.565768) can0 312#082508261FFF1FFF
(1779478864.566062) can0 215#0000000000000000
(1779478864.566327) can0 218#881ADD4300840D00
(1779478864.576815) can0 418#00000000000000
(1779478864.577089) can0 317#000010030600FF00
(1779478864.577353) can0 312#082508271FFF1FFF
(1779478864.587839) can0 215#0000000000000000
(1779478864.588141) can0 325#0100
(1779478864.598497) can0 218#0823DD4300040D00
(1779478864.598800) can0 418#00000000000000
(1779478864.599043) can0 317#000010030600FF00
(1779478864.609490) can0 312#082208221FFF1FFF
(1779478864.609824) can0 215#0000000000000000
(1779478864.610146) can0 212#00FF000026A22822
(1779478864.620642) can0 308#0003184000000003
(1779478864.620945) can0 447#800005
(1779478864.621108) can0 312#082208221FFF1FFF
(1779478864.631580) can0 325#0100
(1779478864.631750) can0 424#03000C005CB201FF
(1779478864.632020) can0 212#00FF000026A22822
(1779478864.642518) can0 308#0003184000000003
(1779478864.642821) can0 445#32005282001200
(1779478864.653271) can0 218#881ADD4300840D00
(1779478864.653565) can0 418#00000000000000
(1779478864.653816) can0 317#000010030500FF00
(1779478864.664269) can0 447#800005
(1779478864.664460) can0 312#082208231FFF1FFF
(1779478864.664722) can0 218#081ADD4300040D00
(1779478864.675248) can0 418#00000000000000
(1779478864.675523) can0 317#000010030500FF00
(1779478864.675794) can0 445#32005282001200
(1779478864.686249) can0 312#082208221FFF1FFF
(1779478864.686543) can0 215#0000000000000000
(1779478864.686816) can0 218#881ADD4300840D00
(1779478864.697297) can0 418#00000000000000
(1779478864.697595) can0 317#000010030400FF00
(1779478864.708147) can0 312#082208221FFF1FFF
(1779478864.708441) can0 215#0000000000000000
(1779478864.708705) can0 325#0100
(1779478864.719050) can0 218#081ADD4300040D00
(1779478864.719345) can0 418#00000000000000
(1779478864.719588) can0 312#082708271FFF1FFF
(1779478864.730111) can0 215#0000000000000000
(1779478864.730431) can0 325#0100
(1779478864.730624) can0 212#00FF000026A32825
(1779478864.741130) can0 308#0003154000000003
(1779478864.741425) can0 447#800005
(1779478864.741608) can0 215#0000000000000000
(1779478864.752066) can0 424#03000C005CB201FF
(1779478864.752361) can0 218#0823DD4300040D00
(1779478864.762818) can0 212#00FF000026A22822
(1779478864.763114) can0 308#0003184000000003
(1779478864.763377) can0 445#32005282001200
(1779478864.773819) can0 218#881ADD4300840D00
(1779478864.774114) can0 418#00000000000000
(1779478864.774357) can0 447#800005
(1779478864.784687) can0 312#082208221FFF1FFF
(1779478864.784989) can0 215#0000000000000000
(1779478864.785259) can0 218#081ADD4300040D00
(1779478864.795729) can0 418#00000000000000
(1779478864.796011) can0 317#000010030300FF00
(1779478864.796279) can0 445#32005282001200
(1779478864.806733) can0 312#082108211FFF1FFF
(1779478864.807034) can0 215#0000000000000000
(1779478864.817547) can0 218#881ADD4300840D00
(1779478864.817873) can0 418#00000000000000
(1779478864.818152) can0 317#000010030400FF00
(1779478864.828627) can0 415#00FF0000FF00FF
(1779478864.828909) can0 608#5900FFBFFF013D00
(1779478864.829175) can0 317#000010030400FF00
(1779478864.839652) can0 212#00FF000026A12820
(1779478864.839955) can0 308#0003194000000003
(1779478864.850442) can0 312#082008201FFF1FFF
(1779478864.850736) can0 215#0000000000000000
(1779478864.851004) can0 325#0100
(1779478864.861314) can0 212#00FF000026A12820
(1779478864.861608) can0 308#0003194000000003
(1779478864.861904) can0 218#081ADD4300040D00
(1779478864.872376) can0 418#00000000000000
(1779478864.872651) can0 317#000010030400FF00
(1779478864.872923) can0 212#00FF000026A32826
(1779478864.883401) can0 101#84
(1779478864.883550) can0 308#0003154000000003
(1779478864.883821) can0 218#8823DD4300840D00
(1779478864.894338) can0 418#00000000000000
(1779478864.894613) can0 317#000010030400FF00
(1779478864.905109) can0 447#800005
(1779478864.905299) can0 312#082608261FFF1FFF
(1779478864.905562) can0 215#0000000000000000
(1779478864.916021) can0 218#0823DD4300040D00
(1779478864.916316) can0 418#00000000000000
(1779478864.916559) can0 445#32005282001200
(1779478864.927042) can0 312#082608261FFF1FFF
(1779478864.927338) can0 215#0000000000000000
(1779478864.927602) can0 218#8823DD4300840D00
(1779478864.938088) can0 418#00000000000000
(1779478864.938362) can0 317#000010030200FF00
(1779478864.938626) can0 312#082408241FFF1FFF
(1779478864.949114) can0 215#0000000000000000
(1779478864.949409) can0 325#0100
(1779478864.959803) can0 212#00FF000026A22824
(1779478864.960098) can0 308#0003164000000003
(1779478864.960362) can0 445#32005282001200
(1779478864.970799) can0 312#082408241FFF1FFF
(1779478864.971094) can0 215#0000000000000000
(1779478864.971358) can0 212#00FF000026A22822
(1779478864.981853) can0 101#84
(1779478864.982002) can0 308#0003184000000003
(1779478864.982269) can0 218#081ADD4300040D00
(1779478864.992780) can0 418#00000000000000
(1779478864.993055) can0 317#000010030300FF00
(1779478864.993324) can0 445#32005282001200
(1779478865.003787) can0 312#082208211FFF1FFF
(1779478865.004080) can0 215#0000000000000000
(1779478865.014566) can0 218#881ADD4300840D00
(1779478865.014867) can0 418#00000000000000
(1779478865.015111) can0 317#000010030200FF00
(1779478865.025587) can0 447#800005
(1779478865.025785) can0 312#082808281FFF1FFF
(1779478865.026047) can0 218#0823DD4300040D00
(1779478865.036524) can0 418#00000000000000
(1779478865.036806) can0 317#000010030300FF00
(1779478865.037149) can0 445#32005282001200
(1779478865.047615) can0 312#082808291FFF1FFF
(1779478865.047917) can0 215#0000000000000000
(1779478865.058360) can0 218#8823DD4300840D00
(1779478865.058654) can0 418#00000000000000
(1779478865.058904) can0 317#000010030300FF00
(1779478865.069336) can0 312#082808281FFF1FFF
(1779478865.069654) can0 215#0000000000000000
(1779478865.069989) can0 212#00FF000026A42827
(1779478865.080447) can0 101#84
(1779478865.080596) can0 308#0003144000000003
(1779478865.080866) can0 312#082808281FFF1FFF
(1779478865.091300) can0 215#0000000000000000
(1779478865.091595) can0 218#8823DD4300840D00
(1779478865.102068) can0 212#00FF000026A42827
(1779478865.102362) can0 308#0003144000000003
(1779478865.102626) can0 447#800005
(1779478865.112981) can0 415#00FF0000FF00FF
(1779478865.113258) can0 608#5900FFBFFF014000
(1779478865.113521) can0 445#32005282001200
(1779478865.124002) can0 325#0100
(1779478865.124175) can0 312#082808281FFF1FFF
(1779478865.124437) can0 218#8823DD4300840D00
(1779478865.134881) can0 418#00000000000000
(1779478865.135162) can0 317#000010030100FF00
(1779478865.135425) can0 447#800005
(1779478865.145803) can0 312#082508241FFF1FFF
(1779478865.146098) can0 215#0000000000000000
(1779478865.146362) can0 218#0823DD4300040D00
(1779478865.156847) can0 418#00000000000000
(1779478865.157153) can0 317#000010030100FF00
(1779478865.167647) can0 445#32005282001200
(1779478865.167929) can0 312#082508251FFF1FFF
(1779478865.168196) can0 215#0000000000000000
(1779478865.178710) can0 418#00000000000000
(1779478865.178993) can0 212#00FF000026A32826
(1779478865.179258) can0 312#082608261FFF1FFF
(1779478865.189742) can0 215#0000000000000000
(1779478865.190068) can0 325#0100
(1779478865.190238) can0 212#00FF000026A32826
(1779478865.200672) can0 308#0003154000000003
(1779478865.200975) can0 445#32005282001200
(1779478865.211425) can0 325#0100
(1779478865.211594) can0 415#00FF0000FF00FF
(1779478865.211845) can0 608#5900FFBFFF011300
(1779478865.222292) can0 212#00FF000026A42827
(1779478865.222587) can0 308#0003144000000003
(1779478865.222858) can0 218#0823DD4300040D00
(1779478865.233312) can0 418#00000000000000
(1779478865.233587) can0 317#000010030100FF00
(1779478865.233858) can0 445#32005282001200
(1779478865.244314) can0 312#082708281FFF1FFF
(1779478865.244608) can0 215#0000000000000000
(1779478865.244880) can0 218#8823DD4300840D00
(1779478865.255360) can0 418#00000000000000
(1779478865.255634) can0 317#000010030100FF00
(1779478865.266128) can0 447#800005
(1779478865.266318) can0 312#082808291FFF1FFF
(1779478865.266581) can0 215#0000000000000000
(1779478865.277047) can0 218#0823DD4300040D00
(1779478865.277342) can0 418#00000000000000
(1779478865.277585) can0 445#32005282001200
(1779478865.288063) can0 312#082808281FFF1FFF
(1779478865.288357) can0 215#0000000000000000
(1779478865.288621) can0 212#00FF000026A42827
(1779478865.299110) can0 308#0003144000000003
(1779478865.299405) can0 447#800005
(1779478865.299564) can0 312#082808271FFF1FFF
(1779478865.310049) can0 215#0000000000000000
(1779478865.310345) can0 325#0100
(1779478865.320729) can0 212#00FF000026A42829
(1779478865.321031) can0 308#0003134000000003
(1779478865.321300) can0 445#32005282001200
(1779478865.331725) can0 218#8823DD4300840D00
(1779478865.332027) can0 418#00000000000000
(1779478865.332272) can0 212#00FF000026A42829
(1779478865.342776) can0 308#0003134000000003
(1779478865.343071) can0 447#800005
(1779478865.343230) can0 218#0823DD4300040D00
(1779478865.353709) can0 418#00000000000000
(1779478865.353992) can0 317#000010030000FF00
(1779478865.354259) can0 445#32005282001200
(1779478865.364713) can0 325#0100
(1779478865.364891) can0 312#082808271FFF1FFF
(1779478865.375399) can0 218#8823DD4300840D00
(1779478865.375693) can0 418#00000000000000
(1779478865.375944) can0 317#000010030000FF00
(1779478865.386391) can0 447#800005
(1779478865.386582) can0 312#082808271FFF1FFF
(1779478865.386853) can0 218#0823DD4300040D00
(1779478865.397290) can0 418#00000000000000
(1779478865.397564) can0 317#00001002FF00FF00
(1779478865.397836) can0 445#32005282001200
(1779478865.408290) can0 312#082608261FFF1FFF
(1779478865.408584) can0 215#0000000000000000
(1779478865.408856) can0 212#00FF000026A32826
(1779478865.419334) can0 308#0003164000000003
(1779478865.419629) can0 447#800005
(1779478865.430016) can0 312#082608261FFF1FFF
(1779478865.430311) can0 215#0000000000000000
(1779478865.430575) can0 325#0100
(1779478865.440908) can0 212#00FF000026A32827
(1779478865.441206) can0 308#0003154000000003
(1779478865.441493) can0 218#8823DD4300840D00
(1779478865.451978) can0 418#00000000000000
(1779478865.452257) can0 317#000010030100FF00
(1779478865.452520) can0 212#00FF000026A32827
(1779478865.462996) can0 308#0003154000000003
(1779478865.463293) can0 447#800005
(1779478865.463452) can0 218#0823DD4300040D00
(1779478865.473942) can0 418#00000000000000
(1779478865.474219) can0 317#000010030000FF00
(1779478865.484658) can0 445#32005282001200
(1779478865.484940) can0 312#082C082C1FFF1FFF
(1779478865.485206) can0 215#0000000000000000
(1779478865.495721) can0 218#8823DD4300840D00
(1779478865.496047) can0 418#00000000000000
(1779478865.496346) can0 447#800005
(1779478865.506728) can0 325#0100
(1779478865.506906) can0 424#03000C005CB201FF
(1779478865.507175) can0 218#0823DD4300040D00
(1779478865.517682) can0 418#00000000000000
(1779478865.517965) can0 317#000010030100FF00
(1779478865.518231) can0 445#32005282001200
(1779478865.528686) can0 325#0100
(1779478865.528865) can0 312#082C082C1FFF1FFF
(1779478865.529130) can0 212#00FF000026A5282B
(1779478865.539645) can0 308#0003124000000003
(1779478865.539948) can0 447#800005
(1779478865.540108) can0 325#0100
(1779478865.550458) can0 312#082C082C1FFF1FFF
(1779478865.550752) can0 215#0000000000000000
(1779478865.551021) can0 212#00FF000026A32829
(1779478865.561528) can0 308#0003154000000003
(1779478865.561861) can0 445#32005282001200
(1779478865.572306) can0 218#8823DD4300840D00
(1779478865.572600) can0 418#00000000000000
(1779478865.572852) can0 317#000010030000FF00
(1779478865.583311) can0 101#84
(1779478865.583460) can0 447#800005
(1779478865.583619) can0 415#00FF0000FF00FF
(1779478865.594049) can0 608#5900FFBFFF011700
(1779478865.594343) can0 218#0823DD4300040D00
(1779478865.594607) can0 445#32005282001200
(1779478865.605074) can0 325#0100
(1779478865.605244) can0 312#082708271FFF1FFF
(1779478865.605530) can0 218#8823DD4300840D00
(1779478865.616040) can0 418#00000000000000
(1779478865.616343) can0 317#000010030100FF00
(1779478865.616638) can0 447#800005
(1779478865.627040) can0 325#0100
(1779478865.627214) can0 312#082708281FFF1FFF
(1779478865.627500) can0 317#000010030000FF00
(1779478865.637995) can0 212#00FF000026A4282A
(1779478865.638292) can0 308#0003134000000003
(1779478865.648793) can0 445#32005282001200
(1779478865.649066) can0 325#0100
(1779478865.649205) can0 312#082B082C1FFF1FFF
(1779478865.659722) can0 212#00FF000026A4282A
(1779478865.660023) can0 308#0003134000000003
(1779478865.660290) can0 325#0100
(1779478865.670688) can0 312#082908281FFF1FFF
(1779478865.670991) can0 215#0000000000000000
(1779478865.671259) can0 212#00FF000026A32829
(1779478865.681750) can0 101#84
(1779478865.681906) can0 308#0003154000000003
(1779478865.682175) can0 218#8823DD4300840D00
(1779478865.692680) can0 418#00000000000000
(1779478865.692963) can0 317#000010030000FF00
(1779478865.693229) can0 447#800005
(1779478865.703602) can0 325#0100
(1779478865.703776) can0 312#082708271FFF1FFF
(1779478865.704039) can0 218#0823DD4300040D00
(1779478865.714556) can0 418#00000000000000
(1779478865.714839) can0 317#000010030000FF00
(1779478865.715108) can0 445#32005282001200
(1779478865.725560) can0 325#0100
(1779478865.725730) can0 215#0000000000000000
(1779478865.726002) can0 218#8823DD4300840D00
(1779478865.736518) can0 418#00000000000000
(1779478865.736801) can0 317#000010030100FF00
(1779478865.747284) can0 325#0100
(1779478865.747477) can0 312#082708271FFF1FFF
(1779478865.747776) can0 215#0000000000000000
(1779478865.758249) can0 212#00FF000026A32827
(1779478865.758543) can0 308#0003164000000003
(1779478865.758815) can0 445#32005282001200
(1779478865.769316) can0 325#0100
(1779478865.769510) can0 312#082708271FFF1FFF
(1779478865.769836) can0 212#00FF000026A5282D
(1779478865.780353) can0 101#84
(1779478865.780502) can0 308#0003114000000003
(1779478865.780774) can0 312#082F082F1FFF1FFF
(1779478865.791292) can0 215#0000000000000000
(1779478865.791588) can0 424#03000C005CB201FF
(1779478865.791859) can0 212#00FF000026A5282D
(1779478865.802318) can0 308#0003114000000003
(1779478865.802613) can0 445#32005282001200
(1779478865.813061) can0 218#882DDD4300040D00
(1779478865.813356) can0 418#00000000000000
(1779478865.813599) can0 317#000010030000FF00
(1779478865.824108) can0 447#800005
(1779478865.824299) can0 325#0100
(1779478865.824437) can0 218#082DDD4300840D00
(1779478865.834940) can0 418#00000000000000
(1779478865.835217) can0 317#000010030000FF00
(1779478865.835504) can0 445#32005282001200
(1779478865.845964) can0 325#0100
(1779478865.846138) can0 312#083108311FFF1FFF
(1779478865.846401) can0 218#882DDD4300040D00
(1779478865.856923) can0 418#00000000000000
(1779478865.857204) can0 317#00001002FF00FF00
(1779478865.857467) can0 325#0100
(1779478865.867824) can0 424#03000C005CB201FF
(1779478865.868124) can0 312#082C082B1FFF1FFF
(1779478865.868387) can0 212#00FF000026A4282C
(1779478865.878886) can0 101#84
(1779478865.879035) can0 308#0003134000000003
(1779478865.879300) can0 325#0100
(1779478865.889691) can0 312#082C082B1FFF1FFF
(1779478865.890017) can0 215#0000000000000000
(1779478865.900497) can0 212#00FF000026A3282A
(1779478865.900800) can0 308#0003154000000003
(1779478865.901063) can0 447#800005
(1779478865.911410) can0 215#0000000000000000
(1779478865.911706) can0 218#082DDD4300840D00
(1779478865.911977) can0 212#00FF000026A3282A
(1779478865.922452) can0 308#0003154000000003
(1779478865.922747) can0 445#32005282001200
(1779478865.922997) can0 218#8823DD4300840D00
(1779478865.933477) can0 418#00000000000000
(1779478865.933752) can0 317#00001002FF00FF00
(1779478865.944230) can0 447#800005
(1779478865.944420) can0 325#0100
(1779478865.944559) can0 424#03000C005CB201FF
(1779478865.944830) can0 218#0823DD4300040D00
(1779478865.955277) can0 418#00000000000000
(1779478865.955582) can0 445#32005282001200
(1779478865.966076) can0 325#0100
(1779478865.966246) can0 312#082808281FFF1FFF
(1779478865.966509) can0 215#0000000000000000
(1779478865.976969) can0 418#00000000000000
(1779478865.977248) can0 415#00FF0000FF00FF
(1779478865.977491) can0 325#0100
(1779478865.987868) can0 424#03000C005CB201FF
(1779478865.988165) can0 312#082508241FFF1FFF
(1779478865.988428) can0 212#00FF000026A22825
(1779478865.998935) can0 308#0003184000000003
(1779478865.999236) can0 445#32005282001200
(1779478865.999478) can0 325#0100
(1779478866.009837) can0 312#082508251FFF1FFF
(1779478866.010135) can0 215#0000000000000000
(1779478866.010398) can0 212#00FF000026A22824
(1779478866.020898) can0 308#0003184000000003
(1779478866.021196) can0 447#800005
(1779478866.021355) can0 218#0823DD4300040D00
(1779478866.031923) can0 418#00000000000000
(1779478866.032199) can0 317#000010030200FF00
(1779478866.042680) can0 212#00FF000026A22824
(1779478866.042982) can0 308#0003184000000003
(1779478866.043249) can0 445#32005282001200
(1779478866.053680) can0 218#8823DD4300840D00
(1779478866.053982) can0 418#00000000000000
(1779478866.054228) can0 447#800005
(1779478866.064622) can0 325#0100
(1779478866.064800) can0 424#03000C005CB201FF
(1779478866.065063) can0 415#00FF0000FF00FF
(1779478866.075556) can0 608#5900FFBFFF014700
(1779478866.075858) can0 218#0823DD4300040D00
(1779478866.076127) can0 445#32005282001200
(1779478866.086580) can0 325#0100
(1779478866.086750) can0 312#082A082A1FFF1FFF
(1779478866.087019) can0 212#00FF000026A42829
(1779478866.097452) can0 308#0003144000000003
(1779478866.097747) can0 447#800005
(1779478866.108138) can0 325#0100
(1779478866.108308) can0 424#03000C005CB201FF
(1779478866.108571) can0 312#082A082B1FFF1FFF
(1779478866.119026) can0 212#00FF000026A22824
(1779478866.119320) can0 308#0003184000000003
(1779478866.119584) can0 325#0100
(1779478866.129964) can0 312#082408241FFF1FFF
(1779478866.130260) can0 215#0000000000000000
(1779478866.130524) can0 212#00FF000026A22824
(1779478866.141026) can0 308#0003184000000003
(1779478866.141321) can0 447#800005
(1779478866.141528) can0 218#0823DD4300040D00
(1779478866.152051) can0 418#00000000000000
(1779478866.152326) can0 317#000010030300FF00
(1779478866.152590) can0 212#00FF000026A22823
(1779478866.163076) can0 308#0003184000000003
(1779478866.163371) can0 445#32005282001200
(1779478866.173808) can0 218#8823DD4300840D00
(1779478866.174108) can0 418#00000000000000
(1779478866.174351) can0 317#000010030300FF00
(1779478866.184871) can0 447#800005
(1779478866.185062) can0 325#0100
(1779478866.185201) can0 218#0823DD4300040D00
(1779478866.195672) can0 418#00000000000000
(1779478866.195955) can0 317#000010030300FF00
(1779478866.196220) can0 445#32005282001200
(1779478866.206630) can0 325#0100
(1779478866.206808) can0 312#082608261FFF1FFF
(1779478866.207071) can0 212#00FF000026A32825
(1779478866.217502) can0 308#0003164000000003
(1779478866.217805) can0 447#800005
(1779478866.217964) can0 325#0100
(1779478866.228315) can0 424#03000C005CB201FF
(1779478866.228610) can0 312#082608261FFF1FFF
(1779478866.228904) can0 212#00FF000026A42829
(1779478866.239377) can0 308#0003134000000003
(1779478866.239672) can0 445#32005282001200
(1779478866.250149) can0 325#0100
(1779478866.250319) can0 312#082B082B1FFF1FFF
(1779478866.250582) can0 215#0000000000000000
(1779478866.261039) can0 212#00FF000026A42829
(1779478866.261339) can0 308#0003134000000003
(1779478866.261680) can0 218#0823DD4300040D00
(1779478866.272193) can0 418#00000000000000
(1779478866.272468) can0 317#000010030100FF00
(1779478866.272732) can0 212#00FF000026A32826
(1779478866.283216) can0 101#84
(1779478866.283365) can0 308#0003164000000003
(1779478866.283628) can0 218#8823DD4300840D00
(1779478866.294064) can0 418#00000000000000
(1779478866.294339) can0 317#000010030200FF00
(1779478866.304817) can0 447#800005
(1779478866.305007) can0 325#0100
(1779478866.305147) can0 424#03000C005CB201FF
(1779478866.305410) can0 218#0823DD4300040D00
(1779478866.315861) can0 418#00000000000000
(1779478866.316141) can0 445#32005282001200
(1779478866.326576) can0 325#0100
(1779478866.326746) can0 312#082308221FFF1FFF
(1779478866.327017) can0 215#0000000000000000
(1779478866.337469) can0 212#00FF000026A22823
(1779478866.337771) can0 308#0003184000000003
(1779478866.338035) can0 325#0100
(1779478866.348365) can0 424#03000C005CB201FF
(1779478866.348660) can0 312#082308231FFF1FFF
(1779478866.348954) can0 212#00FF000026A12822
(1779478866.359427) can0 308#0003194000000003
(1779478866.359722) can0 415#00FF0000FF00FF
(1779478866.359972) can0 325#0100
(1779478866.370328) can0 312#082208211FFF1FFF
(1779478866.370622) can0 215#0000000000000000
(1779478866.370894) can0 212#00FF000026A12822
(1779478866.381398) can0 101#84
(1779478866.381547) can0 308#0003194000000003
(1779478866.381874) can0 218#081ADD4300040D00
(1779478866.392329) can0 418#00000000000000
(1779478866.392603) can0 317#000010030400FF00
(1779478866.403120) can0 308#0003154000000003
(1779478866.403415) can0 445#32005282001200
(1779478866.403657) can0 325#0100
(1779478866.413990) can0 218#8823DD4300840D00
(1779478866.414313) can0 418#00000000000000
(1779478866.414612) can0 447#800005
(1779478866.425034) can0 325#0100
(1779478866.425206) can0 424#03000C005CB201FF
(1779478866.425469) can0 218#0823DD4300040D00
(1779478866.435910) can0 418#00000000000000
(1779478866.436187) can0 317#000010030300FF00
(1779478866.436450) can0 445#32005282001200
(1779478866.446914) can0 325#0100
(1779478866.447084) can0 312#082608251FFF1FFF
(1779478866.447347) can0 415#00FF0000FF00FF
(1779478866.457852) can0 608#5900FFBFFF014000
(1779478866.458152) can0 212#00FF000026A32826
(1779478866.458414) can0 325#0100
(1779478866.468780) can0 424#03000C005CB201FF
(1779478866.469075) can0 312#082608261FFF1FFF
(1779478866.479571) can0 212#00FF000026A32826
(1779478866.479874) can0 101#84
(1779478866.479991) can0 308#0003164000000003
(1779478866.490443) can0 312#082608261FFF1FFF
(1779478866.490737) can0 215#0000000000000000
(1779478866.491008) can0 212#00FF000026A22823
(1779478866.501446) can0 308#0003184000000003
(1779478866.501774) can0 447#800005
(1779478866.501964) can0 218#0823DD4300040D00
(1779478866.512464) can0 418#00000000000000
(1779478866.512739) can0 317#000010030300FF00
(1779478866.513008) can0 308#0003184000000003
(1779478866.523490) can0 445#32005282001200
(1779478866.523771) can0 325#0100
(1779478866.523910) can0 218#8823DD4300840D00
(1779478866.534426) can0 418#00000000000000
(1779478866.534731) can0 317#000010030300FF00
(1779478866.545282) can0 447#800005
(1779478866.545473) can0 325#0100
(1779478866.545611) can0 424#03000C005CB201FF
(1779478866.545882) can0 317#000010030300FF00
(1779478866.556389) can0 608#5900FFBFFF013F00
(1779478866.556683) can0 445#32005282001200
(1779478866.567138) can0 325#0100
(1779478866.567308) can0 312#082808281FFF1FFF
(1779478866.567570) can0 215#0000000000000000
(1779478866.578026) can0 212#00FF000026A22824
(1779478866.578320) can0 101#84
(1779478866.578437) can0 325#0100
(1779478866.588776) can0 424#03000C005CB201FF
(1779478866.589071) can0 312#082408241FFF1FFF
(1779478866.589357) can0 212#00FF000026A22824
(1779478866.599884) can0 308#0003174000000003
(1779478866.600183) can0 445#32005282001200
(1779478866.600425) can0 312#082408241FFF1FFF
(1779478866.610908) can0 215#0000000000000000
(1779478866.611207) can0 218#8823DD4300840D00
(1779478866.611470) can0 212#00FF000026A22824
(1779478866.621934) can0 308#0003174000000003
(1779478866.622235) can0 447#800005
(1779478866.632608) can0 218#0823DD4300040D00
(1779478866.632911) can0 418#00000000000000
(1779478866.633156) can0 317#000010030300FF00
(1779478866.643605) can0 445#32005282001200
(1779478866.643887) can0 325#0100
(1779478866.644025) can0 218#8823DD4300840D00
(1779478866.654476) can0 418#00000000000000
(1779478866.654750) can0 317#000010030200FF00
(1779478866.655021) can0 447#800005
(1779478866.665397) can0 325#0100
(1779478866.665567) can0 424#03000C005CB201FF
(1779478866.665838) can0 212#00FF000026A22822
(1779478866.676351) can0 101#84
(1779478866.676500) can0 308#0003184000000003
(1779478866.676771) can0 445#32005282001200
(1779478866.687270) can0 325#0100
(1779478866.687440) can0 312#082208221FFF1FFF
(1779478866.687702) can0 212#00FF000026A42827
(1779478866.698152) can0 308#0003144000000003
(1779478866.698447) can0 447#800005
(1779478866.698606) can0 325#0100
(1779478866.708953) can0 424#03000C005CB201FF
(1779478866.709250) can0 312#0828082A1FFF1FFF
(1779478866.709581) can0 212#00FF000026A42827
(1779478866.720103) can0 308#0003144000000003
(1779478866.720398) can0 445#32005282001200
(1779478866.730854) can0 312#082808281FFF1FFF
(1779478866.731154) can0 215#0000000000000000
(1779478866.731418) can0 218#8823DD4300840D00
(1779478866.741876) can0 212#00FF000026A32825
(1779478866.742175) can0 308#0003164000000003
(1779478866.742438) can0 218#0823DD4300040D00
(1779478866.752922) can0 418#00000000000000
(1779478866.753199) can0 317#000010030200FF00
(1779478866.753462) can0 445#32005282001200
(1779478866.763926) can0 325#0100
(1779478866.764096) can0 312#082508251FFF1FFF
(1779478866.764359) can0 218#8823DD4300840D00
(1779478866.774884) can0 418#00000000000000
(1779478866.775165) can0 317#000010030300FF00
(1779478866.785641) can0 447#800005
(1779478866.785840) can0 325#0100
(1779478866.785978) can0 424#03000C005CB201FF
(1779478866.796429) can0 212#00FF000026A22823
(1779478866.796724) can0 308#0003174000000003
(1779478866.796995) can0 445#32005282001200
(1779478866.807405) can0 325#0100
(1779478866.807575) can0 312#082308231FFF1FFF
(1779478866.807845) can0 212#00FF000026A22823
(1779478866.818279) can0 308#0003174000000003
(1779478866.818574) can0 447#800005
(1779478866.818733) can0 325#0100
(1779478866.829090) can0 424#03000C005CB201FF
(1779478866.829408) can0 312#082308231FFF1FFF
(1779478866.829726) can0 212#00FF000026A42827
(1779478866.840245) can0 308#0003144000000003
(1779478866.840540) can0 415#00FF0000FF00FF
(1779478866.840790) can0 312#082808281FFF1FFF
(1779478866.851268) can0 215#0000000000000000
(1779478866.851564) can0 218#8823DD4300840D00
(1779478866.862030) can0 212#00FF000026A42827
(1779478866.862324) can0 308#0003144000000003
(1779478866.862588) can0 447#800005
(1779478866.872947) can0 218#0823DD4300040D00
(1779478866.873246) can0 418#00000000000000
(1779478866.873568) can0 445#32005282001200
(1779478866.884054) can0 325#0100
(1779478866.884224) can0 312#082608261FFF1FFF
(1779478866.884487) can0 218#8823DD4300840D00
(1779478866.894934) can0 418#00000000000000
(1779478866.895215) can0 317#000010030200FF00
(1779478866.895478) can0 447#800005
(1779478866.905855) can0 325#0100
(1779478866.906025) can0 424#03000C005CB201FF
(1779478866.906291) can0 212#00FF000026A32825
(1779478866.916809) can0 308#0003164000000003
(1779478866.917108) can0 445#32005282001200
(1779478866.927570) can0 325#0100
(1779478866.927740) can0 312#082508251FFF1FFF
(1779478866.928011) can0 215#0000000000000000
(1779478866.938463) can0 415#00FF0000FF00FF
(1779478866.938737) can0 608#5900FFBFFF014000
(1779478866.939007) can0 325#0100
(1779478866.949321) can0 424#03000C005CB201FF
(1779478866.949640) can0 312#082508251FFF1FFF
(1779478866.949943) can0 212#00FF000026A22824
(1779478866.960376) can0 308#0003174000000003
(1779478866.960671) can0 445#32005282001200
(1779478866.960921) can0 215#0000000000000000
(1779478866.971402) can0 218#8823DD4300840D00
(1779478866.971696) can0 418#00000000000000
(1779478866.982154) can0 212#00FF000026A22824
(1779478866.982448) can0 101#84
(1779478866.982565) can0 308#0003174000000003
(1779478866.993021) can0 218#0823DD4300040D00
(1779478866.993346) can0 418#00000000000000
(1779478866.993645) can0 445#32005282001200
(1779478867.004154) can0 325#0100
(1779478867.004323) can0 312#082A082A1FFF1FFF
(1779478867.004584) can0 218#8823DD4300840D00
(1779478867.015042) can0 317#000010030200FF00
(1779478867.015339) can0 212#00FF000026A42829
(1779478867.015601) can0 447#800005
(1779478867.025984) can0 325#0100
(1779478867.026155) can0 424#03000C005CB201FF
(1779478867.026418) can0 212#00FF000026A42829
(1779478867.036859) can0 308#0003134000000003
(1779478867.037156) can0 445#32005282001200
(1779478867.037398) can0 325#0100
(1779478867.047752) can0 312#082A082A1FFF1FFF
(1779478867.048051) can0 215#0000000000000000
(1779478867.048340) can0 212#00FF000026A42829
(1779478867.058822) can0 308#0003134000000003
(1779478867.059120) can0 447#800005
(1779478867.069479) can0 325#0100
(1779478867.069656) can0 424#03000C005CB201FF
(1779478867.069927) can0 312#082A082A1FFF1FFF
(1779478867.080367) can0 212#00FF000026A32827
(1779478867.080661) can0 101#84
(1779478867.080786) can0 215#0000000000000000
(1779478867.091239) can0 218#8823DD4300840D00
(1779478867.091533) can0 418#00000000000000
(1779478867.091780) can0 212#00FF000026A32827
(1779478867.102216) can0 308#0003154000000003
(1779478867.102511) can0 447#800005
(1779478867.102670) can0 218#0823DD4300040D00
(1779478867.113165) can0 418#00000000000000
(1779478867.113464) can0 317#000010030000FF00
(1779478867.113759) can0 445#32005282001200
(1779478867.124248) can0 325#0100
(1779478867.124418) can0 312#082308221FFF1FFF
(1779478867.124680) can0 317#000010030100FF00
(1779478867.135121) can0 212#00FF000026A22823
(1779478867.135415) can0 308#0003184000000003
(1779478867.145926) can0 447#800005
(1779478867.146120) can0 325#0100
(1779478867.146258) can0 424#03000C005CB201FF
(1779478867.156718) can0 212#00FF000026A32825
(1779478867.157019) can0 308#0003164000000003
(1779478867.157287) can0 445#32005282001200
(1779478867.167710) can0 325#0100
(1779478867.167888) can0 312#082508251FFF1FFF
(1779478867.168154) can0 212#00FF000026A32825
(1779478867.178668) can0 101#84
(1779478867.178824) can0 308#0003164000000003
(1779478867.179088) can0 325#0100
(1779478867.189415) can0 424#03000C005CB201FF
(1779478867.189718) can0 312#082508251FFF1FFF
(1779478867.189989) can0 212#00FF000026A32825
(1779478867.200477) can0 308#0003164000000003
(1779478867.200780) can0 445#32005282001200
(1779478867.201022) can0 215#0000000000000000
(1779478867.211504) can0 218#8823DD4300840D00
(1779478867.211806) can0 418#00000000000000
(1779478867.222255) can0 212#00FF000026A32827
(1779478867.222550) can0 308#0003144000000003
(1779478867.222821) can0 447#800005
(1779478867.233175) can0 218#0823DD4300040D00
(1779478867.233470) can0 418#00000000000000
(1779478867.233713) can0 445#32005282001200
(1779478867.244208) can0 325#0100
(1779478867.244378) can0 312#082808281FFF1FFF
(1779478867.244641) can0 212#00FF000026A32827
(1779478867.255077) can0 308#0003154000000003
(1779478867.255372) can0 447#800005
(1779478867.255531) can0 325#0100
(1779478867.265891) can0 424#03000C005CB201FF
(1779478867.266188) can0 312#082708271FFF1FFF
(1779478867.266451) can0 212#00FF000026A32827
(1779478867.276961) can0 101#84
(1779478867.277110) can0 308#0003154000000003
(1779478867.277374) can0 445#32005282001200
(1779478867.287878) can0 325#0100
(1779478867.288047) can0 312#082708271FFF1FFF
(1779478867.288336) can0 212#00FF000026A5282B
(1779478867.298836) can0 308#0003124000000003
(1779478867.299138) can0 447#800005
(1779478867.299296) can0 325#0100
(1779478867.309641) can0 424#03000C005CB201FF
(1779478867.309944) can0 312#082C082C1FFF1FFF
(1779478867.310209) can0 212#00FF000026A5282B
(1779478867.320703) can0 308#0003124000000003
(1779478867.321007) can0 415#00FF0000FF00FF
(1779478867.331427) can0 218#8823DD4300840D00
(1779478867.331722) can0 418#00000000000000
(1779478867.331973) can0 317#000010030100FF00
(1779478867.342404) can0 212#00FF000026A42829
(1779478867.342698) can0 308#0003134000000003
(1779478867.342969) can0 218#0823DD4300040D00
(1779478867.353429) can0 418#00000000000000
(1779478867.353703) can0 317#000010030000FF00
(1779478867.364181) can0 445#32005282001200
(1779478867.364454) can0 325#0100
(1779478867.364593) can0 312#082A08291FFF1FFF
(1779478867.375049) can0 212#00FF000026A22825
(1779478867.375343) can0 101#84
(1779478867.375460) can0 447#800005
(1779478867.375619) can0 325#0100
(1779478867.385943) can0 424#03000C005CB201FF
(1779478867.386240) can0 212#00FF000026A22825
(1779478867.386503) can0 308#0003174000000003
(1779478867.397006) can0 445#32005282001200
(1779478867.397281) can0 325#0100
(1779478867.397420) can0 312#082508241FFF1FFF
(1779478867.407864) can0 215#0000000000000000
(1779478867.408186) can0 218#8823DD4300840D00
(1779478867.418749) can0 415#00FF0000FF00FF
(1779478867.419031) can0 608#5900FFBFFF011500
(1779478867.419300) can0 212#00FF000026A22825
(1779478867.429824) can0 325#0100
(1779478867.429993) can0 424#03000C005CB201FF
(1779478867.430258) can0 212#00FF000026A22825
(1779478867.440753) can0 308#0003174000000003
(1779478867.441056) can0 445#32005282001200
(1779478867.441326) can0 218#8823DD4300840D00
(1779478867.451786) can0 418#00000000000000
(1779478867.452061) can0 317#000010030100FF00
(1779478867.462523) can0 212#00FF000026A42828
(1779478867.462826) can0 308#0003144000000003
(1779478867.463089) can0 447#800005
(1779478867.473461) can0 218#0823DD4300040D00
(1779478867.473756) can0 418#00000000000000
(1779478867.474004) can0 445#32005282001200
(1779478867.484482) can0 325#0100
(1779478867.484652) can0 312#082808281FFF1FFF
(1779478867.484922) can0 212#00FF000026A42829
(1779478867.495353) can0 308#0003144000000003
(1779478867.495648) can0 447#800005
(1779478867.495815) can0 325#0100
(1779478867.506173) can0 424#03000C005CB201FF
(1779478867.506468) can0 312#082A082A1FFF1FFF
(1779478867.506730) can0 212#00FF000026A42829
(1779478867.517235) can0 308#0003144000000003
(1779478867.517530) can0 445#32005282001200
(1779478867.528006) can0 325#0100
(1779478867.528178) can0 312#082A082A1FFF1FFF
(1779478867.528464) can0 215#0000000000000000
(1779478867.538957) can0 212#00FF000026A32828
(1779478867.539255) can0 308#0003154000000003
(1779478867.539519) can0 424#03000C005CB201FF
(1779478867.549962) can0 312#082808271FFF1FFF
(1779478867.550258) can0 215#0000000000000000
(1779478867.550522) can0 212#00FF000026A32828
(1779478867.560986) can0 308#0003154000000003
(1779478867.561311) can0 445#32005282001200
(1779478867.571818) can0 218#8823DD4300840D00
(1779478867.572141) can0 418#00000000000000
(1779478867.572444) can0 317#000010030100FF00
(1779478867.582963) can0 212#00FF000026A32828
(1779478867.583260) can0 101#84
(1779478867.583377) can0 218#0823DD4300040D00
(1779478867.593843) can0 418#00000000000000
(1779478867.594124) can0 212#00FF000026A4282A
(1779478867.594387) can0 445#32005282001200
(1779478867.604888) can0 325#0100
(1779478867.605058) can0 312#082B082B1FFF1FFF
(1779478867.605322) can0 212#00FF000026A4282A
(1779478867.615846) can0 308#0003134000000003
(1779478867.616144) can0 447#800005
(1779478867.616303) can0 325#0100
(1779478867.626652) can0 424#03000C005CB201FF
(1779478867.626955) can0 312#082B082C1FFF1FFF
(1779478867.627224) can0 212#00FF000026A32827
(1779478867.637714) can0 308#0003164000000003
(1779478867.638017) can0 445#32005282001200
(1779478867.648466) can0 325#0100
(1779478867.648636) can0 312#082708271FFF1FFF
(1779478867.648907) can0 215#0000000000000000
(1779478867.659355) can0 212#00FF000026A32827
(1779478867.659649) can0 308#0003164000000003
(1779478867.659921) can0 312#082708261FFF1FFF
(1779478867.670438) can0 215#0000000000000000
(1779478867.670733) can0 218#0823DD4300040D00
(1779478867.671004) can0 212#00FF000026A12823
(1779478867.681471) can0 101#84
(1779478867.681620) can0 308#0003184000000003
(1779478867.681891) can0 218#8823DD4300840D00
(1779478867.692404) can0 418#00000000000000
(1779478867.692678) can0 317#000010030100FF00
(1779478867.703153) can0 447#800005
(1779478867.703344) can0 415#00FF0000FF00FF
(1779478867.703586) can0 608#5900FFBFFF014400
(1779478867.714042) can0 212#00FF000026A22824
(1779478867.714338) can0 308#0003174000000003
(1779478867.714602) can0 445#32005282001200
(1779478867.725017) can0 325#0100
(1779478867.725188) can0 312#082408241FFF1FFF
(1779478867.725450) can0 212#00FF000026A22824
(1779478867.735897) can0 308#0003174000000003
(1779478867.736196) can0 447#800005
(1779478867.736355) can0 325#0100
(1779478867.746702) can0 424#03000C005CB201FF
(1779478867.747005) can0 312#082408251FFF1FFF
(1779478867.747270) can0 212#00FF000026A5282A
(1779478867.757773) can0 308#0003134000000003
(1779478867.758068) can0 325#0100
(1779478867.758206) can0 445#32005282001200
(1779478867.768681) can0 312#082C082C1FFF1FFF
(1779478867.768984) can0 215#0000000000000000
(1779478867.779455) can0 212#00FF000026A5282A
(1779478867.779749) can0 101#84
(1779478867.779874) can0 308#0003134000000003
(1779478867.790322) can0 312#082C082D1FFF1FFF
(1779478867.790616) can0 215#0000000000000000
(1779478867.790888) can0 212#00FF000026A32828
(1779478867.801346) can0 308#0003144000000003
(1779478867.801666) can0 415#00FF0000FF00FF
(1779478867.801948) can0 218#8823DD4300840D00
(1779478867.812451) can0 418#00000000000000
(1779478867.812726) can0 317#000010030100FF00
(1779478867.812997) can0 308#0003144000000003
(1779478867.823477) can0 447#800005
(1779478867.823668) can0 325#0100
(1779478867.823814) can0 212#00FF000026A22825
(1779478867.834327) can0 308#0003174000000003
(1779478867.834622) can0 325#0100
(1779478867.834768) can0 445#32005282001200
(1779478867.845248) can0 312#082508241FFF1FFF
(1779478867.845542) can0 215#0000000000000000
(1779478867.856054) can0 212#00FF000026A22825
(1779478867.856349) can0 308#0003174000000003
(1779478867.856612) can0 447#800005
(1779478867.866947) can0 325#0100
(1779478867.867120) can0 424#03000C005CB201FF
(1779478867.867384) can0 212#00FF000026A22823
(1779478867.877867) can0 101#84
(1779478867.878016) can0 308#0003184000000003
(1779478867.878305) can0 325#0100
(1779478867.888672) can0 445#32005282001200
(1779478867.888954) can0 312#082308221FFF1FFF
(1779478867.889243) can0 415#00FF0000FF00FF
(1779478867.899734) can0 608#5900FFBFFF014300
(1779478867.900035) can0 212#00FF000026A22823
(1779478867.900300) can0 312#082308231FFF1FFF
(1779478867.910809) can0 215#0000000000000000
(1779478867.911108) can0 218#0823DD4300040D00
(1779478867.911396) can0 212#00FF000026A32826
(1779478867.921921) can0 308#0003154000000003
(1779478867.922218) can0 325#0100
(1779478867.922356) can0 218#8823DD4300840D00
(1779478867.932859) can0 418#00000000000000
(1779478867.933138) can0 317#000010030300FF00
(1779478867.943616) can0 447#800005
(1779478867.943815) can0 325#0100
(1779478867.943953) can0 424#03000C005CB201FF
(1779478867.954404) can0 212#00FF000026A32827
(1779478867.954698) can0 308#0003154000000003
(1779478867.954970) can0 325#0100
(1779478867.965276) can0 445#32005282001200
(1779478867.965549) can0 312#082808281FFF1FFF
(1779478867.965820) can0 212#00FF000026A42828
(1779478867.976255) can0 101#84
(1779478867.976404) can0 308#0003144000000003
(1779478867.976667) can0 447#800005
(1779478867.986998) can0 325#0100
(1779478867.987172) can0 424#03000C005CB201FF
(1779478867.987436) can0 212#00FF000026A42828
(1779478867.997960) can0 308#0003144000000003
(1779478867.998258) can0 325#0100
(1779478867.998397) can0 445#32005282001200
(1779478868.008877) can0 312#082908291FFF1FFF
(1779478868.009199) can0 215#0000000000000000
(1779478868.009517) can0 212#00FF000026A32826
(1779478868.020001) can0 308#0003164000000003
(1779478868.020300) can0 447#800005
(1779478868.020458) can0 312#082608261FFF1FFF
(1779478868.030947) can0 215#0000000000000000
(1779478868.031275) can0 218#0823DD4300040D00
(1779478868.041750) can0 212#00FF000026A32826
(1779478868.042051) can0 308#0003164000000003
(1779478868.042316) can0 325#0100
(1779478868.052688) can0 218#8823DD4300840D00
(1779478868.052990) can0 418#00000000000000
(1779478868.053238) can0 447#800005
(1779478868.063646) can0 325#0100
(1779478868.063824) can0 424#03000C005CB201FF
(1779478868.064086) can0 212#00FF000026A42828
(1779478868.074579) can0 101#84
(1779478868.074728) can0 308#0003144000000003
(1779478868.074999) can0 325#0100
(1779478868.085326) can0 445#32005282001200
(1779478868.085600) can0 312#082908291FFF1FFF
(1779478868.085870) can0 212#00FF000026A22825
(1779478868.096307) can0 308#0003164000000003
(1779478868.096602) can0 447#800005
(1779478868.096768) can0 325#0100
(1779478868.107120) can0 424#03000C005CB201FF
(1779478868.107415) can0 312#082508251FFF1FFF
(1779478868.107702) can0 212#00FF000026A22825
(1779478868.118182) can0 308#0003164000000003
(1779478868.118477) can0 325#0100
(1779478868.118615) can0 445#32005282001200
(1779478868.129094) can0 312#082508251FFF1FFF
(1779478868.129419) can0 215#0000000000000000
(1779478868.129714) can0 212#00FF000026A32826
(1779478868.140229) can0 308#0003164000000003
(1779478868.140524) can0 447#800005
(1779478868.150892) can0 312#082608261FFF1FFF
(1779478868.151214) can0 218#0823DD4300040D00
(1779478868.151517) can0 418#00000000000000
(1779478868.161972) can0 212#00FF000026A32826
(1779478868.162268) can0 308#0003164000000003
(1779478868.162532) can0 418#00000000000000
(1779478868.173018) can0 317#000010030200FF00
(1779478868.173313) can0 212#00FF000026A22824
(1779478868.173576) can0 447#800005
(1779478868.183959) can0 415#00FF0000FF00FF
(1779478868.184237) can0 608#5900FFBFFF014300
(1779478868.184500) can0 212#00FF000026A22824
(1779478868.195000) can0 308#0003174000000003
(1779478868.195300) can0 325#0100
(1779478868.205666) can0 445#32005282001200
(1779478868.205947) can0 312#082408241FFF1FFF
(1779478868.206260) can0 215#0000000000000000
(1779478868.216725) can0 212#00FF000026A42827
(1779478868.217027) can0 308#0003144000000003
(1779478868.217293) can0 447#800005
(1779478868.227625) can0 325#0100
(1779478868.227803) can0 424#07400C005CB201FF
(1779478868.228088) can0 212#00FF000026A42827
(1779478868.238575) can0 308#0003144000000003
(1779478868.238878) can0 325#0100
(1779478868.239016) can0 445#32005282001200
(1779478868.249499) can0 312#082808281FFF1FFF
(1779478868.249801) can0 215#0000000000000000
(1779478868.250064) can0 212#00FF000026A32825
(1779478868.260538) can0 308#0003164000000003
(1779478868.260841) can0 447#800005
(1779478868.260999) can0 218#0823DD4300040D00
(1779478868.271476) can0 418#00000000000000
(1779478868.271750) can0 317#000010030200FF00
(1779478868.282221) can0 212#00FF000026A32825
(1779478868.282515) can0 101#84
(1779478868.282632) can0 308#0003164000000003
(1779478868.293092) can0 212#00FF000026A32826
(1779478868.293387) can0 308#0003164000000003
(1779478868.293650) can0 447#800005
(1779478868.304009) can0 325#0100
(1779478868.304183) can0 424#07600C005CB201FF
(1779478868.304446) can0 212#00FF000026A32826
(1779478868.314884) can0 308#0003184000000003
(1779478868.315183) can0 325#0100
(1779478868.315321) can0 445#32005282001200
(1779478868.325801) can0 312#082208221FFF1FFF
(1779478868.326124) can0 215#0000000000000000
(1779478868.326420) can0 212#00FF000026A22822
(1779478868.336934) can0 308#0003184000000003
(1779478868.337231) can0 447#800005
(1779478868.337390) can0 325#0100
(1779478868.347739) can0 424#07600C005CB201FF
(1779478868.348039) can0 312#082208211FFF1FFF
(1779478868.348326) can0 212#00FF000026A32825
(1779478868.358817) can0 308#0003154000000003
(1779478868.359113) can0 325#0100
(1779478868.369466) can0 445#32005282001200
(1779478868.369740) can0 312#082508261FFF1FFF
(1779478868.370007) can0 215#0000000000000000
(1779478868.380459) can0 212#00FF000026A32825
(1779478868.380753) can0 101#84
(1779478868.380878) can0 218#0823DD4300040D00
(1779478868.391330) can0 418#00000000000000
(1779478868.391605) can0 317#000010030200FF00
(1779478868.391876) can0 212#00FF000026A12820
(1779478868.402376) can0 308#0003194000000003
(1779478868.402671) can0 325#0100
(1779478868.402817) can0 212#00FF000026A12820
(1779478868.413316) can0 308#0003194000000003
(1779478868.413611) can0 447#800005
(1779478868.413776) can0 325#0100
(1779478868.424130) can0 424#07600C005CB201FF
(1779478868.424424) can0 312#0820081F1FFF1FFF
(1779478868.424687) can0 212#00FF000026A22823
(1779478868.435193) can0 308#0003174000000003
(1779478868.435488) can0 325#0100
(1779478868.435626) can0 445#32005282001200
(1779478868.446115) can0 312#082308231FFF1FFF
(1779478868.446409) can0 215#0000000000000000
(1779478868.456879) can0 212#00FF000026A22823
(1779478868.457175) can0 308#0003174000000003
(1779478868.457438) can0 447#800005
(1779478868.467817) can0 325#0100
(1779478868.467987) can0 424#07600C005CB201FF
(1779478868.468280) can0 212#00FF000026A42826
(1779478868.478771) can0 101#84
(1779478868.478920) can0 308#0003144000000003
(1779478868.479186) can0 445#32005282001200
(1779478868.489680) can0 312#082708271FFF1FFF
(1779478868.489982) can0 215#0000000000000000
(1779478868.490272) can0 212#00FF000026A42826
(1779478868.500726) can0 308#0003144000000003
(1779478868.501029) can0 447#800005
(1779478868.501218) can0 218#0823DD4300040D00
(1779478868.511751) can0 418#00000000000000
(1779478868.512032) can0 317#000010030200FF00
(1779478868.522503) can0 212#00FF000026A52829
(1779478868.522805) can0 308#0003124000000003
(1779478868.523068) can0 325#0100
(1779478868.533391) can0 212#00FF000026A52829
(1779478868.533686) can0 308#0003124000000003
(1779478868.533957) can0 447#800005
(1779478868.544370) can0 325#0100
(1779478868.544540) can0 424#07600C005CB201FF
(1779478868.544812) can0 212#00FF000026A32826
(1779478868.555284) can0 308#0003154000000003
(1779478868.555579) can0 325#0100
(1779478868.555717) can0 445#32005282001200
(1779478868.566165) can0 312#082608261FFF1FFF
(1779478868.566459) can0 215#0000000000000000
(1779478868.566723) can0 212#00FF000026A32826
(1779478868.577206) can0 101#84
(1779478868.577355) can0 308#0003154000000003
(1779478868.577618) can0 325#0100
(1779478868.587927) can0 424#07600C005CB201FF
(1779478868.588251) can0 312#082608251FFF1FFF
(1779478868.588545) can0 212#00FF000026A32824
(1779478868.598994) can0 308#0003164000000003
(1779478868.599291) can0 325#0100
(1779478868.599429) can0 445#32005282001200
(1779478868.609922) can0 312#082408241FFF1FFF
(1779478868.610242) can0 215#0000000000000000
(1779478868.620791) can0 212#00FF000026A32824
(1779478868.621110) can0 308#0003164000000003
(1779478868.621429) can0 447#800005
(1779478868.631791) can0 418#00000000000000
(1779478868.632066) can0 317#000010030100FF00
(1779478868.632329) can0 212#00FF000026A42826
(1779478868.642832) can0 308#0003144000000003
(1779478868.643130) can0 325#0100
(1779478868.643268) can0 212#00FF000026A42826
(1779478868.653770) can0 308#0003144000000003
(1779478868.654065) can0 447#800005
(1779478868.654224) can0 415#00FF0000FF00FF
(1779478868.664679) can0 608#5900FFBFFF011300
(1779478868.664982) can0 325#0100
(1779478868.665124) can0 212#00FF000026A6282D
(1779478868.675637) can0 101#84
(1779478868.675794) can0 308#0003104000000003
(1779478868.676057) can0 325#0100
(1779478868.686450) can0 445#32005282001200
(1779478868.686724) can0 312#082F08301FFF1FFF
(1779478868.686994) can0 212#00FF000026A6282D
(1779478868.697512) can0 308#0003104000000003
(1779478868.697815) can0 447#800005
(1779478868.697974) can0 325#0100
(1779478868.708325) can0 424#07600C005CB201FF
(1779478868.708620) can0 312#082E082E1FFF1FFF
(1779478868.708891) can0 212#00FF000026A5282D
(1779478868.719387) can0 308#0003114000000003
(1779478868.719682) can0 325#0100
(1779478868.719829) can0 312#082E082E1FFF1FFF
(1779478868.730333) can0 215#0000000000000000
(1779478868.730629) can0 218#882DDD4300040D00
(1779478868.741142) can0 212#00FF000026A5282B
(1779478868.741460) can0 308#0003124000000003
(1779478868.741755) can0 447#800005
(1779478868.752095) can0 212#00FF000026A5282B
(1779478868.752389) can0 308#0003124000000003
(1779478868.752653) can0 415#00FF0000FF00FF
(1779478868.763120) can0 608#5900FFBFFF014600
(1779478868.763415) can0 325#0100
(1779478868.763553) can0 212#00FF000026A42829
(1779478868.773987) can0 101#84
(1779478868.774141) can0 308#0003144000000003
(1779478868.774405) can0 447#800005
(1779478868.784734) can0 325#0100
(1779478868.784910) can0 424#07600C005CB201FF
(1779478868.785175) can0 212#00FF000026A42829
(1779478868.795688) can0 308#0003144000000003
(1779478868.795991) can0 325#0100
(1779478868.796135) can0 445#32005282001200
(1779478868.806605) can0 312#082908291FFF1FFF
(1779478868.806907) can0 215#0000000000000000
(1779478868.807199) can0 212#00FF000026A4282A
(1779478868.817737) can0 308#0003144000000003
(1779478868.818040) can0 447#800005
(1779478868.828419) can0 325#0100
(1779478868.828589) can0 424#07600C005CB201FF
(1779478868.828860) can0 312#082A082A1FFF1FFF
(1779478868.839311) can0 212#00FF000026A4282A
(1779478868.839606) can0 308#0003144000000003
(1779478868.839878) can0 312#082A082A1FFF1FFF
(1779478868.850374) can0 215#0000000000000000
(1779478868.850669) can0 218#8823DD4300840D00
(1779478868.850940) can0 212#00FF000026A22826
(1779478868.861402) can0 308#0003174000000003
(1779478868.861704) can0 447#800005
(1779478868.861871) can0 212#00FF000026A22826
(1779478868.872337) can0 101#84
(1779478868.872486) can0 308#0003174000000003
(1779478868.872749) can0 325#0100
(1779478868.883154) can0 445#32005282001200
(1779478868.883428) can0 312#082608251FFF1FFF
(1779478868.883690) can0 212#00FF000026A22823
(1779478868.894128) can0 308#0003184000000003
(1779478868.894423) can0 447#800005
(1779478868.904815) can0 325#0100
(1779478868.904985) can0 424#07600C005CB201FF
(1779478868.905250) can0 312#082308231FFF1FFF
(1779478868.915700) can0 212#00FF000026A22823
(1779478868.916002) can0 308#0003184000000003
(1779478868.916269) can0 325#0100
(1779478868.926638) can0 445#32005282001200
(1779478868.926919) can0 312#082308221FFF1FFF
(1779478868.927208) can0 212#00FF000026A1281F
(1779478868.937700) can0 308#00031A4000000003
(1779478868.938003) can0 447#800005
(1779478868.938165) can0 325#0100
(1779478868.948513) can0 424#07600C005CB201FF
(1779478868.948816) can0 312#081F081F1FFF1FFF
(1779478868.949079) can0 212#00FF000026A1281F
(1779478868.959575) can0 308#00031A4000000003
(1779478868.959878) can0 325#0100
(1779478868.960016) can0 312#081F081F1FFF1FFF
(1779478868.970513) can0 215#0000000000000000
(1779478868.970816) can0 218#881ADD4300840D00
(1779478868.981265) can0 212#00FF000026A22822
(1779478868.981566) can0 101#84
(1779478868.981683) can0 308#0003174000000003
(1779478868.992138) can0 212#00FF000026A22822
(1779478868.992432) can0 308#0003174000000003
(1779478868.992695) can0 325#0100
(1779478869.003026) can0 445#32005282001200
(1779478869.003298) can0 312#082308231FFF1FFF
(1779478869.003559) can0 212#00FF000026A22823
(1779478869.014001) can0 308#0003164000000003
(1779478869.014300) can0 447#800005
(1779478869.014458) can0 325#0100
(1779478869.024822) can0 424#07600C005CB201FF
(1779478869.025120) can0 312#082308231FFF1FFF
(1779478869.025382) can0 212#00FF000026A22823
(1779478869.035884) can0 308#0003164000000003
(1779478869.036183) can0 325#0100
(1779478869.036321) can0 445#32005282001200
(1779478869.046801) can0 312#082308231FFF1FFF
(1779478869.047125) can0 215#0000000000000000
(1779478869.047443) can0 212#00FF000026A42826
(1779478869.057934) can0 308#0003144000000003
(1779478869.058231) can0 447#800005
(1779478869.068608) can0 325#0100
(1779478869.068786) can0 424#07600C005CB201FF
(1779478869.069072) can0 218#0823DD4300040D00
(1779478869.079566) can0 212#00FF000026A42826
(1779478869.079868) can0 101#84
(1779478869.079985) can0 218#8823DD4300840D00
(1779478869.090438) can0 312#082908291FFF1FFF
(1779478869.090732) can0 215#0000000000000000
(1779478869.091003) can0 212#00FF000026A42828
(1779478869.101508) can0 308#0003134000000003
(1779478869.101812) can0 447#800005
(1779478869.101971) can0 212#00FF000026A5282B
(1779478869.112438) can0 308#0003114000000003
(1779478869.112733) can0 325#0100
(1779478869.112879) can0 445#32005282001200
(1779478869.123355) can0 218#8823DD4300840D00
(1779478869.123649) can0 312#082C082D1FFF1FFF
(1779478869.123920) can0 212#00FF000026A5282B
(1779478869.134401) can0 308#0003114000000003
(1779478869.134696) can0 415#00FF0000FF00FF
(1779478869.145147) can0 608#5900FFBFFF013F00
(1779478869.145442) can0 447#800005
(1779478869.145600) can0 325#0100
(1779478869.155934) can0 212#00FF000026A32826
(1779478869.156230) can0 308#0003154000000003
(1779478869.156493) can0 325#0100
(1779478869.166834) can0 445#32005282001200
(1779478869.167120) can0 218#8823DD4300840D00
(1779478869.167407) can0 212#00FF000026A32826
(1779478869.177896) can0 101#84
(1779478869.178045) can0 308#0003154000000003
(1779478869.178311) can0 325#0100
(1779478869.188701) can0 424#07600C005CB201FF
(1779478869.189034) can0 218#0823DD4300040D00
(1779478869.189354) can0 212#00FF000026A22822
(1779478869.199858) can0 308#0003184000000003
(1779478869.200155) can0 325#0100
(1779478869.200293) can0 218#8823DD4300840D00
(1779478869.210796) can0 312#082208221FFF1FFF
(1779478869.211090) can0 215#0000000000000000
(1779478869.211354) can0 212#00FF000026A22822
(1779478869.221821) can0 308#0003184000000003
(1779478869.222120) can0 447#800005
(1779478869.222279) can0 212#00FF000026A22822
(1779478869.232751) can0 308#0003174000000003
(1779478869.233052) can0 415#00FF0000FF00FF
(1779478869.243537) can0 608#5900FFBFFF011500
(1779478869.243838) can0 325#0100
(1779478869.243977) can0 445#32005282001200
(1779478869.254408) can0 212#00FF000026A22822
(1779478869.254702) can0 308#0003174000000003
(1779478869.254974) can0 447#800005
(1779478869.265371) can0 325#0100
(1779478869.265541) can0 424#07600C005CB201FF
(1779478869.265812) can0 212#00FF000026A42828
(1779478869.276325) can0 101#84
(1779478869.276474) can0 308#0003134000000003
(1779478869.276737) can0 325#0100
(1779478869.287051) can0 445#32005282001200
(1779478869.287332) can0 218#881ABD5340840D00
(1779478869.287595) can0 212#00FF000026A42828
(1779478869.298026) can0 308#0003134000000003
(1779478869.298321) can0 447#800005
(1779478869.298480) can0 424#07600C005CB201FF
(1779478869.308980) can0 218#0823BD5340040D00
(1779478869.309300) can0 418#00000000000008
(1779478869.309605) can0 212#00FF000026A5282A
(1779478869.320076) can0 308#0003114000000003
(1779478869.320371) can0 325#0100
(1779478869.320509) can0 317#000010030000FF00
(1779478869.331014) can0 312#082D082D1FFF1FFF
(1779478869.331310) can0 415#00FF0000FF00FF
(1779478869.341808) can0 212#00FF000026A5282A
(1779478869.342108) can0 308#0003114000000003
(1779478869.342372) can0 447#800005
(1779478869.352791) can0 212#00FF000026A5282B
(1779478869.353086) can0 308#0003114000000003
(1779478869.353349) can0 325#0100
(1779478869.363700) can0 445#32005282001200
(1779478869.363982) can0 218#88230D5300840D00
(1779478869.364248) can0 212#00FF000026A5282B
(1779478869.374770) can0 101#84
(1779478869.374918) can0 308#0003114000000003
(1779478869.375186) can0 447#800005
(1779478869.385596) can0 325#0100
(1779478869.385774) can0 424#07600C005CB201FF
(1779478869.386037) can0 212#00FF000026A32826
(1779478869.396550) can0 308#0003164000000003
(1779478869.396853) can0 325#0100
(1779478869.396991) can0 218#88231D5300840D00
(1779478869.407487) can0 445#32005282001200
(1779478869.407768) can0 418#00000000000010
(1779478869.408011) can0 212#00FF000026A32826
(1779478869.418512) can0 308#0003164000000003
(1779478869.418815) can0 447#800005
(1779478869.418974) can0 218#0823104300040D00
(1779478869.429458) can0 418#00000000000020
(1779478869.429739) can0 317#00001002FE00FF00
(1779478869.440238) can0 212#00FF000026A32826
(1779478869.440501) can0 308#0003154000000003
(1779478869.440772) can0 325#0100
(1779478869.451113) can0 317#00001002FE00FF00
(1779478869.451408) can0 212#00FF000026A32826
(1779478869.451671) can0 308#0003154000000003
(1779478869.462177) can0 447#800005
(1779478869.462368) can0 325#0100
(1779478869.462506) can0 212#00FF000026A32825
(1779478869.472945) can0 101#84
(1779478869.473094) can0 308#0003164000000003
(1779478869.473358) can0 325#0100
(1779478869.483751) can0 218#8823105340840D00
(1779478869.484051) can0 445#32005282001200
(1779478869.484295) can0 212#00FF000026A42827
(1779478869.494820) can0 308#0003144000000003
(1779478869.495121) can0 447#800005
(1779478869.495280) can0 325#0100
(1779478869.505626) can0 424#07600C005CB201FF
(1779478869.505928) can0 218#0823105340040D00
(1779478869.506196) can0 212#00FF000026A42827
(1779478869.516688) can0 308#0003144000000003
(1779478869.516991) can0 325#0100
(1779478869.517135) can0 218#8823105340840D00
(1779478869.527625) can0 418#00000000000020
(1779478869.527908) can0 445#32005282001200
(1779478869.538395) can0 212#00FF000026A42827
(1779478869.538689) can0 308#0003144000000003
(1779478869.538961) can0 447#800005
(1779478869.549316) can0 218#0823105340040D00
(1779478869.549610) can0 418#00000000000020
(1779478869.549861) can0 212#00FF000026A42827
(1779478869.560349) can0 308#0003144000000003
(1779478869.560613) can0 325#0100
(1779478869.561012) can0 212#00FF000026A5282C
(1779478869.571547) can0 101#84
(1779478869.571696) can0 308#0003114000000003
(1779478869.571967) can0 325#0100
(1779478869.582274) can0 424#07600C005CB201FF
(1779478869.582568) can0 218#0823105340040D00
(1779478869.582839) can0 212#00FF000026A5282C
(1779478869.593336) can0 308#0003114000000003
(1779478869.593631) can0 325#0100
(1779478869.593776) can0 218#882D105340040D00
(1779478869.604279) can0 418#00000000000020
(1779478869.604553) can0 445#32005282001200
(1779478869.604803) can0 212#00FF000026A42829
(1779478869.615300) can0 308#0003134000000003
(1779478869.615595) can0 415#00FF0000FF00FF
(1779478869.626031) can0 608#5900FFBFFF011500
(1779478869.626327) can0 325#0100
(1779478869.626465) can0 424#07600C005CB201FF
(1779478869.636981) can0 212#00FF000026A42829
(1779478869.637279) can0 308#0003134000000003
(1779478869.637542) can0 325#0100
(1779478869.647906) can0 218#8823105340840D00
(1779478869.648228) can0 418#00000000000020
(1779478869.648526) can0 212#00FF000026A42829
(1779478869.659047) can0 308#0003144000000003
(1779478869.659342) can0 447#800005
(1779478869.659501) can0 418#00000000000020
(1779478869.669966) can0 317#00001002FD00FF00
(1779478869.670266) can0 312#082908291FFF1FFF
(1779478869.670529) can0 212#00FF000026A42829
(1779478869.681033) can0 101#84
(1779478869.681183) can0 308#0003144000000003
(1779478869.681494) can0 212#00FF000026A4282A
(1779478869.691956) can0 308#0003134000000003
(1779478869.692257) can0 447#800005
(1779478869.702612) can0 325#0100
(1779478869.702790) can0 424#07600C005CB201FF
(1779478869.703053) can0 218#0823105340040D00
(1779478869.713501) can0 212#00FF000026A4282A
(1779478869.713803) can0 308#0003134000000003
(1779478869.714067) can0 325#0100
(1779478869.724373) can0 218#8823105340840D00
(1779478869.724667) can0 418#00000000000020
(1779478869.724918) can0 212#00FF000026A6282F
(1779478869.735435) can0 308#0003104000000003
(1779478869.735730) can0 447#800005
(1779478869.735897) can0 325#0100
(1779478869.746248) can0 424#07600C005CB201FF
(1779478869.746567) can0 218#0823105340040D00
(1779478869.746869) can0 212#00FF000026A6282F
(1779478869.757312) can0 308#0003104000000003
(1779478869.757607) can0 325#0100
(1779478869.757746) can0 218#882D105340040D00
(1779478869.768258) can0 418#00000000000020
(1779478869.768532) can0 317#00001002F600FF00
(1779478869.768803) can0 212#00FF000026A6282F
(1779478869.779279) can0 101#84
(1779478869.779427) can0 308#0003114000000003
(1779478869.789938) can0 312#0830082F1FFF1FFF
(1779478869.790237) can0 215#0000000000000000
(1779478869.790501) can0 212#00FF000026A6282F
(1779478869.800965) can0 308#0003114000000003
(1779478869.801290) can0 325#0100
(1779478869.801460) can0 415#00FF0000FF00FF
(1779478869.811897) can0 608#5900FFBFFF011A00
(1779478869.812196) can0 212#00FF000026A5282E
(1779478869.812459) can0 308#0003114000000003
(1779478869.822943) can0 447#800005
(1779478869.823138) can0 325#0100
(1779478869.823276) can0 212#00FF000026A5282E
(1779478869.833793) can0 308#0003114000000003
(1779478869.834088) can0 325#0100
(1779478869.834226) can0 218#882D105340040D00
(1779478869.844722) can0 418#00000000000020
(1779478869.845003) can0 317#00001002F200FF00
(1779478869.845269) can0 212#00FF000026A5282F
(1779478869.855748) can0 308#0003114000000003
(1779478869.856048) can0 325#0100
(1779478869.856188) can0 424#07600C005CB201FF
(1779478869.866685) can0 218#082D105340840D00
(1779478869.866988) can0 447#800005
(1779478869.877367) can0 212#00FF000026A5282F
(1779478869.877662) can0 101#84
(1779478869.877786) can0 308#0003114000000003
(1779478869.888239) can0 218#882D105340040D00
(1779478869.888533) can0 418#00000000000020
(1779478869.888780) can0 212#00FF000026A62832
(1779478869.899237) can0 308#00030F4000000003
(1779478869.899532) can0 447#800005
(1779478869.899691) can0 312#083408341FFF1FFF
(1779478869.910175) can0 215#0000000000000000
(1779478869.910470) can0 415#00FF0000FF00FF
(1779478869.910713) can0 212#00FF000026A62831
(1779478869.921209) can0 308#0003104000000003
(1779478869.921505) can0 325#0100
(1779478869.921643) can0 212#00FF000026A62831
(1779478869.932142) can0 308#0003104000000003
(1779478869.932437) can0 325#0100
(1779478869.932575) can0 447#800005
(1779478869.942969) can0 424#07600C005CB201FF
(1779478869.943269) can0 218#082D105340840D00
(1779478869.953738) can0 212#00FF000026A52830
(1779478869.954039) can0 308#0003114000000003
(1779478869.954309) can0 325#0100
(1779478869.964627) can0 218#882D105340040D00
(1779478869.964929) can0 418#00000000000020
(1779478869.965175) can0 212#00FF000026A52830
(1779478869.975623) can0 101#84
(1779478869.975776) can0 308#0003114000000003
(1779478869.976040) can0 325#0100
(1779478869.986357) can0 424#07600C005CB201FF
(1779478869.986651) can0 218#082D105340840D00
(1779478869.986922) can0 212#00FF000026A52831
(1779478869.997411) can0 308#0003114000000003
(1779478869.997706) can0 325#0100
(1779478869.997853) can0 218#882D105340040D00
(1779478870.008349) can0 418#00000000000020
(1779478870.008622) can0 317#00001002E500FF00
(1779478870.008892) can0 212#00FF000026A52831
(1779478870.019374) can0 308#0003114000000003
(1779478870.019669) can0 325#0100
(1779478870.019815) can0 312#083108321FFF1FFF
(1779478870.030314) can0 215#0000000000000000
(1779478870.030609) can0 212#00FF000026A72837
(1779478870.041102) can0 308#00030D4000000003
(1779478870.041421) can0 325#0100
(1779478870.041591) can0 218#882D105340040D00
(1779478870.052036) can0 212#00FF000026A72837
(1779478870.052331) can0 308#00030D4000000003
(1779478870.052594) can0 325#0100
(1779478870.062912) can0 447#800005
(1779478870.063103) can0 424#07600C005CB201FF
(1779478870.063366) can0 212#00FF000026A72838
(1779478870.073807) can0 101#84
(1779478870.073955) can0 308#00030D4000000003
(1779478870.074225) can0 325#0100
(1779478870.084612) can0 218#8836105340040D00
(1779478870.084914) can0 418#00000000000020
(1779478870.085162) can0 212#00FF000026A72838
(1779478870.095674) can0 308#00030D4000000003
(1779478870.095978) can0 415#00FF0000FF00FF
(1779478870.096224) can0 608#5900FFBFFF015200
(1779478870.106700) can0 325#0100
(1779478870.106878) can0 424#07600C005CB201FF
(1779478870.107167) can0 212#00FF000026A82839
(1779478870.117637) can0 308#00030D4000000003
(1779478870.117941) can0 325#0100
(1779478870.118079) can0 218#8836105340040D00
(1779478870.128575) can0 418#00000000000020
(1779478870.128858) can0 317#00001002AA00FF00
(1779478870.139340) can0 212#00FF000026A82839
(1779478870.139635) can0 308#00030D4000000003
(1779478870.139906) can0 325#0100
(1779478870.150237) can0 312#083B083B1FFF1FFF
(1779478870.150531) can0 215#0000000000000000
(1779478870.150803) can0 212#00FF000026AB2843
(1779478870.161310) can0 308#0003074000000003
(1779478870.161605) can0 325#0100
(1779478870.161743) can0 212#00FF000026AB2843
(1779478870.172239) can0 101#84
(1779478870.172388) can0 308#0003074000000003
(1779478870.172651) can0 325#0100
(1779478870.182963) can0 424#07600C005CB201FF
(1779478870.183260) can0 447#800005
(1779478870.183418) can0 212#00FF000026B12855
(1779478870.193859) can0 308#0002FB4000000003
(1779478870.194156) can0 415#00FF0000FF00FF
(1779478870.194398) can0 325#0100
(1779478870.204752) can0 218#883F105340040D00
(1779478870.205052) can0 418#00000000000020
(1779478870.205301) can0 212#00FF000026B12855
(1779478870.215822) can0 308#0002FB4000000003
(1779478870.216121) can0 325#0100
(1779478870.216259) can0 424#07600C005CB201FF
(1779478870.226759) can0 447#800005
(1779478870.226957) can0 218#0852105340040D00
(1779478870.237520) can0 212#00FF000026B8286E
(1779478870.237822) can0 308#0002EC4000000003
(1779478870.238086) can0 325#0100
(1779478870.248412) can0 418#00000000000020
(1779478870.248687) can0 317#000010021F00FF00
(1779478870.248982) can0 212#00FF000026B8286E
(1779478870.259474) can0 308#0002EC4000000003
(1779478870.259776) can0 325#0100
(1779478870.259914) can0 312#087A087F1FFF1FFF
(1779478870.270412) can0 215#0000000000000000
(1779478870.270707) can0 212#00FF000026B82888
(1779478870.270978) can0 101#84
(1779478870.281292) can0 308#0002DC4000000003
(1779478870.281587) can0 325#0100
(1779478870.281725) can0 415#00FF0000FF00FF
(1779478870.292186) can0 608#5900FFBFFF017100
(1779478870.292480) can0 212#00FF000026B82888
(1779478870.292743) can0 325#0100
(1779478870.303103) can0 424#07600C005CB201FF
(1779478870.303397) can0 218#0881105340840D00
(1779478870.303660) can0 212#00FF000026B8289B
(1779478870.314166) can0 308#0002CF4000000003
(1779478870.314461) can0 325#0100
(1779478870.314599) can0 218#8881105340040D00
(1779478870.325102) can0 418#00000000000020
(1779478870.325377) can0 317#00001001A300FF00
(1779478870.335895) can0 212#00FF000026B8289B
(1779478870.336196) can0 308#0002CF4000000003
(1779478870.336459) can0 325#0100
(1779478870.346857) can0 424#07600C005CB201FF
(1779478870.347178) can0 218#0893105340840D00
(1779478870.347472) can0 212#00FF000026B828A6
(1779478870.357920) can0 308#0002CB4000000003
(1779478870.358217) can0 325#0100
(1779478870.358355) can0 317#000010015C00FF00
